,Potential applied / V,Time / s,WE(1).Current / A,WE(1).Potential / V,Scan,Index,e / (A/s1/2),BaseLine / (A s-1/2),Fcurve / (A/s1/2),Ecurve / (A/s1/2),Dcurve / (A/s1/2),e Reconstructed / (A/s1/2)
0,-0.60028076171875,235.070906406503,-0.00261535644531249,-0.59912109375,3,10736,-0.000631217,-6.579745240927002e-05,-521.5617356789551,-6.775947266887025e-06,-1.0942704289316446e-09,-521.5618082534489
1,-0.601348876953125,235.092268406449,-0.00261840820312501,-0.600189208984375,3,10737,-0.000608985,-7.332414788435195e-05,-494.9466374003787,-7.011411461392265e-06,-1.1331342871375207e-09,-494.94671773707114
2,-0.6024169921875,235.113630406395,-0.0026092529296875,-0.601318359375,3,10738,-0.000581299,-8.128093923705226e-05,-468.28601598461375,-7.269230595531706e-06,-1.175720781648114e-09,-468.2861045359593
3,-0.603485107421875,235.134992406341,-0.0026092529296875,-0.602325439453125,3,10739,-0.000618691,-8.837753883451666e-05,-445.72160975562264,-7.507162539045014e-06,-1.2150518645193688e-09,-445.721705641539
4,-0.60455322265625,235.156354406287,-0.0026123046875,-0.60345458984375,3,10740,-0.000660355,-9.633433723392568e-05,-421.7125056786718,-7.78320466971071e-06,-1.2607171016015045e-09,-421.71260979747444
5,-0.605621337890625,235.177716406233,-0.00261840820312501,-0.6044921875,3,10741,-0.000627629,-0.0001036459882935532,-400.7920035571131,-8.045801837461591e-06,-1.3041913655264756e-09,-400.7921152502075
6,-0.606689453125,235.199078406179,-0.0026092529296875,-0.60552978515625,3,10742,-0.0005926,-0.00011095763230647201,-380.9093537169719,-8.317255015766976e-06,-1.3491647412130769e-09,-380.90947299320845
7,-0.607757568359375,235.220440406125,-0.0026092529296875,-0.606597900390625,3,10743,-0.000615282,-0.00011848432778155393,-361.47169333874245,-8.606257914045142e-06,-1.3970813664428088e-09,-361.47182043072524
8,-0.60882568359375,235.241802406072,-0.002606201171875,-0.607666015625,3,10744,-0.000527997,-0.00012601103030334543,-343.02591260317627,-8.905298973865618e-06,-1.4466998345982036e-09,-343.02604752095226
9,-0.609893798828125,235.263164406018,-0.00258789062500001,-0.608734130859375,3,10745,-0.000534928,-0.00013353772577842735,-325.5214299092012,-9.214725980644919e-06,-1.4980804933807078e-09,-325.52157266315106
10,-0.6109619140625,235.284526405964,-0.0025970458984375,-0.609771728515625,3,10746,-0.000647095,-0.00014084937683805487,-309.37281758842437,-9.525599470213893e-06,-1.549739938098181e-09,-309.3729679649504
11,-0.612030029296875,235.30588840591,-0.002606201171875,-0.610931396484375,3,10747,-0.000681051,-0.0001490212126062096,-292.27054651805497,-9.885467570226846e-06,-1.6095878291693008e-09,-292.27070542634476
12,-0.61309814453125,235.327250405856,-0.0026123046875,-0.6119384765625,3,10748,-0.000618486,-0.0001561178192503827,-278.1874487883153,-1.0208991638128885e-05,-1.663433006372027e-09,-278.1876151167896
13,-0.614166259765625,235.348612405802,-0.00260009765624999,-0.613006591796875,3,10749,-0.000556011,-0.00016364451472546462,-263.991648400986,-1.056369468115135e-05,-1.7225111095569865e-09,-263.9918226109179
14,-0.615234375,235.369974405748,-0.0025970458984375,-0.614105224609375,3,10750,-0.0006083,-0.00017138626166271053,-250.14562451412863,-1.0941386887150332e-05,-1.785466901082844e-09,-250.14580684356264
15,-0.616302490234375,235.391336405694,-0.00260314941406251,-0.615142822265625,3,10751,-0.000634319,-0.00017869790567562934,-237.73630043301648,-1.1310480586510835e-05,-1.8470364471650001e-09,-237.73649044324978
16,-0.61737060546875,235.41269840564,-0.00260314941406251,-0.616180419921875,3,10752,-0.000606056,-0.00018600955673525685,-225.9425719791357,-1.169201869339124e-05,-1.9107292025132934e-09,-225.94276968262184
17,-0.618438720703125,235.434060405586,-0.00260009765624999,-0.6173095703125,3,10753,-0.000597369,-0.0001939663480879563,-213.77202889821135,-1.2121851683830443e-05,-1.9825399791661726e-09,-213.77223498839365
18,-0.6195068359375,235.455422405532,-0.00260009765624999,-0.61834716796875,3,10754,-0.00062765,-0.0002012779991475847,-203.1671307178795,-1.2530743704389991e-05,-2.0509054045354806e-09,-203.16734452867325
19,-0.620574951171875,235.476784405478,-0.00260314941406251,-0.619384765625,3,10755,-0.00059231,-0.0002085896502072122,-193.08832505767208,-1.2953419960794106e-05,-2.1216283261504764e-09,-193.0885466028639
20,-0.62164306640625,235.498146405424,-0.00258789062500001,-0.620452880859375,3,10756,-0.000365507,-0.00021611634568229413,-183.23510079618413,-1.3403415598753198e-05,-2.1969795856997424e-09,-183.2353303181424
21,-0.622711181640625,235.51950840537,-0.0025482177734375,-0.62158203125,3,10757,-0.000449993,-0.00022407313703499444,-173.36502333073238,-1.389612330611463e-05,-2.279548484640992e-09,-173.36526130227227
22,-0.623779296875,235.540870405316,-0.0025787353515625,-0.622650146484375,3,10758,-0.000702023,-0.00023159983251007637,-164.51827170312487,-1.4378845780882934e-05,-2.3605083988061774e-09,-164.51851768416367
23,-0.624847412109375,235.562232405263,-0.002593994140625,-0.6236572265625,3,10759,-0.000676102,-0.00023869643915424947,-156.5909354514034,-1.4849322657107043e-05,-2.439473946682204e-09,-156.59118899960467
24,-0.62591552734375,235.583594405209,-0.0025970458984375,-0.624725341796875,3,10760,-0.000646818,-0.0002462231346293314,-148.60015918951385,-1.536513327995785e-05,-2.5261137351889436e-09,-148.6004207803079
25,-0.626983642578125,235.604956405155,-0.0025970458984375,-0.62579345703125,3,10761,-0.000587313,-0.0002537498301044142,-141.01714922063093,-1.589884780949638e-05,-2.615830601572625e-09,-141.01741887192466
26,-0.6280517578125,235.626318405101,-0.002581787109375,-0.626861572265625,3,10762,-0.000373447,-0.0002612765255794961,-133.82109738491422,-1.6451086743607193e-05,-2.7087338305419624e-09,-133.82137511523527
27,-0.629119873046875,235.647680405047,-0.002545166015625,-0.6279296875,3,10763,-0.000491452,-0.0002688032281012876,-126.99225112767269,-1.702249256175077e-05,-2.8049366797784324e-09,-126.99253695619828
28,-0.63018798828125,235.669042404993,-0.002581787109375,-0.6290283203125,3,10764,-0.000719427,-0.0002765449679918231,-120.33167608502617,-1.7630918586938084e-05,-2.907453771072645e-09,-120.33197026382021
29,-0.631256103515625,235.690404404939,-0.0025909423828125,-0.630096435546875,3,10765,-0.000668794,-0.00028407167051361457,-114.19119052692875,-1.82432689353369e-05,-3.0107143162174077e-09,-114.19149284487891
30,-0.63232421875,235.711766404885,-0.002593994140625,-0.6312255859375,3,10766,-0.000579756,-0.0002920284618663149,-108.0402080378989,-1.8913730119288792e-05,-3.1238657310992437e-09,-108.04051898321477
31,-0.633392333984375,235.733128404831,-0.0025787353515625,-0.632232666015625,3,10767,-0.000535989,-0.0002991250614637793,-102.83428033556068,-1.95324512745452e-05,-3.2283675849478247e-09,-102.83459899630178
32,-0.63446044921875,235.754490404777,-0.0025787353515625,-0.63330078125,3,10768,-0.000548715,-0.0003066517569388612,-97.58668587011405,-2.0210781248575724e-05,-3.3430255283459613e-09,-97.58701273599527
33,-0.635528564453125,235.775852404723,-0.00257263183593751,-0.6343994140625,3,10769,-0.000550378,-0.00031439350387610625,-92.46838916724079,-2.093305261866974e-05,-3.465209233018209e-09,-92.46872449726249
34,-0.6365966796875,235.797214404669,-0.00257568359375,-0.635406494140625,3,10770,-0.000590312,-0.0003214901034735715,-88.01279103855647,-2.1617764027199356e-05,-3.5811299573152144e-09,-88.01313415000511
35,-0.637664794921875,235.818576404615,-0.0025787353515625,-0.63653564453125,3,10771,-0.000582686,-0.0003294469018729797,-83.2719209216551,-2.2412111238422826e-05,-3.7157193684919608e-09,-83.27227278438393
36,-0.63873291015625,235.839938404561,-0.0025787353515625,-0.6375732421875,3,10772,-0.000643389,-0.0003367585458858985,-79.14093419909872,-2.316773195774001e-05,-3.843851184656089e-09,-79.14129412922041
37,-0.639801025390625,235.861300404507,-0.002593994140625,-0.638671875,3,10773,-0.000658756,-0.0003445002928231444,-74.99009354945628,-2.399555589895669e-05,-3.9843394799462586e-09,-74.99046204928933
38,-0.640869140625,235.882662404454,-0.00258789062500001,-0.639678955078125,3,10774,-0.000516331,-0.0003515968924206088,-71.3766887578522,-2.478032323908699e-05,-4.117626524568611e-09,-71.37706513918548
39,-0.641937255859375,235.9040244044,-0.00256958007812499,-0.640777587890625,3,10775,-0.000525447,-0.00035933863935785383,-67.6330728385911,-2.5665698033486877e-05,-4.268120986913549e-09,-67.63345784719661
40,-0.64300537109375,235.925386404346,-0.0025787353515625,-0.64178466796875,3,10776,-0.000628453,-0.00036643523895531823,-64.37416678982481,-2.6505018449993674e-05,-4.410901295008903e-09,-64.37455973449313
41,-0.644073486328125,235.946748404292,-0.00258483886718749,-0.64288330078125,3,10777,-0.000577329,-0.00037417698589256414,-60.9978241802488,-2.7451934839879988e-05,-4.572114605161215e-09,-60.99822581374165
42,-0.6451416015625,235.968110404238,-0.00257568359375,-0.643951416015625,3,10778,-0.000562917,-0.00038170368136764606,-57.88512826281646,-2.8404926415143242e-05,-4.734496732628628e-09,-57.88553837615874
43,-0.646209716796875,235.989472404184,-0.002581787109375,-0.64501953125,3,10779,-0.000633283,-0.000389230376842728,-54.931272041793406,-2.9390955049319212e-05,-4.902645982489514e-09,-54.93169066802794
44,-0.64727783203125,236.01083440413,-0.00258789062500001,-0.64605712890625,3,10780,-0.000572101,-0.0003965420279023555,-52.206216991692756,-3.038152954055707e-05,-5.071707588810481e-09,-52.2066439203219
45,-0.648345947265625,236.032196404076,-0.00257568359375,-0.64715576171875,3,10781,-0.000569628,-0.0004042837748396014,-49.46806776656469,-3.146673189574455e-05,-5.257072589535367e-09,-49.4685035223285
46,-0.6494140625,236.053558404022,-0.00258483886718749,-0.64825439453125,3,10782,-0.000590244,-0.0004120255217768473,-46.8735309617785,-3.2590637022165165e-05,-5.449212461889904e-09,-46.8739755833865
47,-0.650482177734375,236.074920403968,-0.0025787353515625,-0.649322509765625,3,10783,-0.000596756,-0.00041955221725192837,-44.48159238985161,-3.372173382059739e-05,-5.642745372125535e-09,-44.482045669445434
48,-0.65155029296875,236.096282403914,-0.00258789062500001,-0.650360107421875,3,10784,-0.000596205,-0.00042686386126484805,-42.27493178292816,-3.485802850650759e-05,-5.8373281757802625e-09,-42.275393510655256
49,-0.652618408203125,236.11764440386,-0.0025787353515625,-0.6514892578125,3,10785,-0.000532999,-0.0004348206596642562,-39.99776322119116,-3.613805988351215e-05,-6.056712118221449e-09,-39.99823418596741
50,-0.6536865234375,236.139006403806,-0.00257263183593751,-0.652557373046875,3,10786,-0.000481047,-0.000442347355139339,-37.956692478780305,-3.739205647728005e-05,-6.271820827840736e-09,-37.95717222446374
51,-0.654754638671875,236.160368403752,-0.00255737304687501,-0.653533935546875,3,10787,-0.000438765,-0.0004492289103213481,-36.18185047421286,-3.857654079060163e-05,-6.4751706353943916e-09,-36.182338286139135
52,-0.65582275390625,236.181730403698,-0.00255432128906249,-0.65472412109375,3,10788,-0.000606998,-0.00045761579755166596,-34.130585639110365,-4.007088049274856e-05,-6.731938189616075e-09,-34.13108333252035
53,-0.656890869140625,236.203092403645,-0.00258483886718749,-0.655792236328125,3,10789,-0.000727303,-0.00046514249302674875,-32.38891475156362,-4.146107890437648e-05,-6.971028049655977e-09,-32.38942136210658
54,-0.657958984375,236.224454403591,-0.002593994140625,-0.656829833984375,3,10790,-0.000670301,-0.0004724541440863754,-30.782151018805596,-4.285763284891064e-05,-7.211415178035055e-09,-30.78266633779395
55,-0.659027099609375,236.245816403537,-0.002593994140625,-0.657867431640625,3,10791,-0.00060041,-0.0004797657951460038,-29.255096338132333,-4.430112896695615e-05,-7.460091748814573e-09,-29.255620412516535
56,-0.66009521484375,236.267178403483,-0.0025787353515625,-0.65899658203125,3,10792,-0.000303493,-0.00048772258649870323,-27.679251612629646,-4.592716810426067e-05,-7.74046362154162e-09,-27.679785270124714
57,-0.661163330078125,236.288540403429,-0.00252380371093749,-0.6600341796875,3,10793,-0.000364472,-0.0004950342375583316,-26.306126950003677,-4.7473817467758915e-05,-8.00738374944306e-09,-26.306669466066086
58,-0.6622314453125,236.309902403375,-0.0025604248046875,-0.661102294921875,3,10794,-0.000762322,-0.0005025609330334135,-24.96373523257519,-4.912025239437432e-05,-8.291771988736383e-09,-24.964286922052388
59,-0.663299560546875,236.331264403321,-0.0025970458984375,-0.662139892578125,3,10795,-0.00076936,-0.000509872584093041,-23.72532311801234,-5.077417393359362e-05,-8.577703276907594e-09,-23.72588377334807
60,-0.66436767578125,236.352626403267,-0.00260009765624999,-0.6632080078125,3,10796,-0.00064244,-0.0005173992795681238,-22.514628844869517,-5.253478341027375e-05,-8.88234682692591e-09,-22.515198787814843
61,-0.665435791015625,236.373988403213,-0.002593994140625,-0.664215087890625,3,10797,-0.000614203,-0.0005244958791655874,-21.429759312128144,-5.425052315841884e-05,-9.179485477727348e-09,-21.430338067709954
62,-0.66650390625,236.395350403159,-0.0025909423828125,-0.66534423828125,3,10798,-0.000444578,-0.0005324526705182877,-20.27543143740527,-5.624077460429667e-05,-9.524477099449465e-09,-20.27602014037487
63,-0.667572021484375,236.416712403105,-0.00255126953125,-0.666412353515625,3,10799,-0.000341771,-0.0005399793730400783,-19.240782889523246,-5.819041931024178e-05,-9.862746324744518e-09,-19.241381069178342
64,-0.66864013671875,236.438074403051,-0.00255126953125,-0.66748046875,3,10800,-0.000637555,-0.0005475060685151611,-18.25893300957599,-6.0207455664288455e-05,-1.0213029101194951e-08,-18.259540733313198
65,-0.669708251953125,236.459436402997,-0.002593994140625,-0.668548583984375,3,10801,-0.00076706,-0.0005550327639902422,-17.327186557970993,-6.229420143346386e-05,-1.0575752420174831e-08,-17.327803895512172
66,-0.6707763671875,236.480798402943,-0.00260009765624999,-0.66961669921875,3,10802,-0.000659455,-0.000562559459465325,-16.442986775693367,-6.44530512161431e-05,-1.095135811562699e-08,-16.443613799155404
67,-0.671844482421875,236.502160402889,-0.00260009765624999,-0.670684814453125,3,10803,-0.000655764,-0.0005700861549404078,-15.603907374174845,-6.668648083764237e-05,-1.134030371345596e-08,-15.604544158150926
68,-0.67291259765625,236.523522402836,-0.00260314941406251,-0.671783447265625,3,10804,-0.000551413,-0.0005778279018776528,-14.785502415003691,-6.906422679961177e-05,-1.1754778370873224e-08,-14.786149318887148
69,-0.673980712890625,236.544884402782,-0.0025787353515625,-0.6728515625,3,10805,-0.000439525,-0.0005853546043994443,-14.031003126018527,-7.145690365636685e-05,-1.2172258403068115e-08,-14.031659949698842
70,-0.675048828125,236.566246402728,-0.00256958007812499,-0.67388916015625,3,10806,-0.000514158,-0.0005926662484123622,-13.33494751716255,-7.386028466146123e-05,-1.2592002813742882e-08,-13.335614056287627
71,-0.676116943359375,236.587608402674,-0.0025787353515625,-0.6749267578125,3,10807,-0.000653812,-0.0005999778994719906,-12.673421491571453,-7.634421044546704e-05,-1.3026221971300194e-08,-12.674097826707593
72,-0.67718505859375,236.60897040262,-0.00260009765624999,-0.67608642578125,3,10808,-0.000702228,-0.0006081497422868532,-11.972828359098903,-7.921897305891121e-05,-1.3529268839667682e-08,-11.973515741343519
73,-0.678253173828125,236.630332402566,-0.002606201171875,-0.677093505859375,3,10809,-0.000667549,-0.0006152463418843176,-11.395916485622115,-8.180281492612982e-05,-1.3981859484393551e-08,-11.396613548760783
74,-0.6793212890625,236.651694402512,-0.0026092529296875,-0.67822265625,3,10810,-0.000626903,-0.0006232031332370179,-10.782068058032788,-8.479979353496892e-05,-1.4507337996524497e-08,-10.782776075466899
75,-0.680389404296875,236.673056402458,-0.00260314941406251,-0.67919921875,3,10811,-0.000532967,-0.0006300846884190279,-10.277902230196187,-8.747981039354491e-05,-1.4977705753505325e-08,-10.278619809672705
76,-0.68145751953125,236.694418402404,-0.0025909423828125,-0.68035888671875,3,10812,-0.000603048,-0.0006382565312338913,-9.70973461078192,-9.07720790769377e-05,-1.555611495886804e-08,-9.710463654948345
77,-0.682525634765625,236.71578040235,-0.0026092529296875,-0.681365966796875,3,10813,-0.000611909,-0.0006453531308313549,-9.24187012485938,-9.373106401218749e-05,-1.6076508998672168e-08,-9.242609225130733
78,-0.68359375,236.737142402296,-0.0025970458984375,-0.682464599609375,3,10814,-0.000612185,-0.0006530948777686008,-8.757145872091849,-9.706865661983615e-05,-1.6664086103853294e-08,-8.757896052290324
79,-0.684661865234375,236.758504402242,-0.00261535644531249,-0.68353271484375,3,10815,-0.000685398,-0.0006606215732436827,-8.310272027479435,-0.00010042689512834078,-1.7255923176617948e-08,-8.311033093203731
80,-0.68572998046875,236.779866402188,-0.00261535644531249,-0.68450927734375,3,10816,-0.0005893,-0.000667503121378984,-7.921686928096738,-0.000103598355672648,-1.781540690222887e-08,-7.922458047389197
81,-0.686798095703125,236.801228402134,-0.002606201171875,-0.6856689453125,3,10817,-0.000571625,-0.0006756749641938474,-7.483772079047243,-0.00010749413829983789,-1.8503402312394284e-08,-7.484555266653139
82,-0.6878662109375,236.82259040208,-0.0026092529296875,-0.686737060546875,3,10818,-0.000621655,-0.000683201666715638,-7.1018776696399355,-0.00011121115661479984,-1.9160564552388737e-08,-7.10267210162383
83,-0.688934326171875,236.843952402027,-0.00261535644531249,-0.687835693359375,3,10819,-0.000655505,-0.0006909434066061752,-6.729393610633995,-0.00011516776841979884,-1.9860859349975167e-08,-6.73019974166988
84,-0.69000244140625,236.865314401973,-0.0026214599609375,-0.688812255859375,3,10820,-0.000608324,-0.0006978249617881844,-6.414729458795739,-0.00011880211308658716,-2.0504802680885804e-08,-6.415546106375416
85,-0.691070556640625,236.886676401919,-0.0026123046875,-0.689910888671875,3,10821,-0.000564309,-0.0007055667087254303,-6.078285113483329,-0.00012302721237754865,-2.1254228317016982e-08,-6.07911372865866
86,-0.692138671875,236.908038401865,-0.0026123046875,-0.691009521484375,3,10822,-0.000603506,-0.0007133084486159666,-5.759487125657605,-0.00012740165685173554,-2.203104377977947e-08,-5.760327857794117
87,-0.693206787109375,236.929400401811,-0.00261535644531249,-0.692047119140625,3,10823,-0.000569662,-0.000720620099675595,-5.473767918830905,-0.00013167491070492678,-2.2790755607259714e-08,-5.474620236632042
88,-0.69427490234375,236.950762401757,-0.002606201171875,-0.693115234375,3,10824,-0.000535189,-0.0007281467951506769,-5.194443610416764,-0.00013622263822837515,-2.360018535061109e-08,-5.195308003450328
89,-0.695343017578125,236.972124401703,-0.002606201171875,-0.6942138671875,3,10825,-0.000595691,-0.0007358885420879219,-4.922001695134963,-0.00014106311502243385,-2.4462743233041464e-08,-4.922878671254816
90,-0.6964111328125,236.993486401649,-0.00261535644531249,-0.69525146484375,3,10826,-0.000638806,-0.0007432001931475503,-4.67782883917549,-0.00014579140663474675,-2.530630886925361e-08,-4.678717856081581
91,-0.697479248046875,237.014848401595,-0.0026214599609375,-0.69635009765625,3,10827,-0.000654088,-0.0007509419400847954,-4.432482707060454,-0.00015096944356444097,-2.6231223340996688e-08,-4.433384644675327
92,-0.69854736328125,237.036210401541,-0.0026275634765625,-0.6973876953125,3,10828,-0.000616529,-0.0007582535840977142,-4.212594334027068,-0.0001560273039005637,-2.7135771670889748e-08,-4.213508642050839
93,-0.699615478515625,237.057572401487,-0.0026214599609375,-0.698486328125,3,10829,-0.000589109,-0.0007659953310349592,-3.991649155920589,-0.00016156607783694024,-2.812755060140352e-08,-3.9925767454570114
94,-0.70068359375,237.078934401433,-0.00262451171875,-0.69952392578125,3,10830,-0.000615349,-0.0007733069820945876,-3.793629643787401,-0.0001669761215259514,-2.909749200902826e-08,-3.7945699559885133
95,-0.701751708984375,237.100296401379,-0.00263061523437499,-0.7005615234375,3,10831,-0.000749709,-0.0007806186261075055,-3.6054337487566355,-0.00017256581816392762,-3.010087949657462e-08,-3.6063869633017864
