,Potential applied / V,Time / s,WE(1).Current / A,WE(1).Potential / V,Scan,Index
0,-0.998992919921875,31.993975919223,-0.002655029296875,-0.99822998046875,3,4497
1,-0.9979248046875,31.9993169192095,-0.00264923095703125,-0.997314453125,3,4498
2,-0.996856689453125,32.004657919196,-0.00264404296875,-0.99639892578125,3,4499
3,-0.99578857421875,32.0099989191825,-0.0026348876953125,-0.9954833984375,3,4500
4,-0.994720458984375,32.015339919169,-0.0026263427734375,-0.9942626953125,3,4501
5,-0.99365234375,32.0206809191556,-0.00262237548828125,-0.9930419921875,3,4502
6,-0.992584228515625,32.0260219191421,-0.00261505126953125,-0.9918212890625,3,4503
7,-0.99151611328125,32.0313629191286,-0.0026043701171875,-0.99090576171875,3,4504
8,-0.990447998046875,32.0367039191151,-0.002603759765625,-0.989990234375,3,4505
9,-0.9893798828125,32.0420449191016,-0.0025933837890625,-0.98846435546875,3,4506
10,-0.988311767578125,32.0473859190881,-0.0025836181640625,-0.98785400390625,3,4507
11,-0.98724365234375,32.0527269190746,-0.0025811767578125,-0.98663330078125,3,4508
12,-0.986175537109375,32.0580679190612,-0.0025677490234375,-0.98541259765625,3,4509
13,-0.985107421875,32.0634089190477,-0.00256500244140625,-0.9844970703125,3,4510
14,-0.984039306640625,32.0687499190342,-0.00255584716796875,-0.98358154296875,3,4511
15,-0.98297119140625,32.0740909190207,-0.00254730224609375,-0.9820556640625,3,4512
16,-0.981903076171875,32.0794319190072,-0.00254119873046875,-0.98114013671875,3,4513
17,-0.9808349609375,32.0847729189937,-0.00253509521484375,-0.98052978515625,3,4514
18,-0.979766845703125,32.0901139189803,-0.002529296875,-0.97930908203125,3,4515
19,-0.97869873046875,32.0954549189668,-0.0025177001953125,-0.97808837890625,3,4516
20,-0.977630615234375,32.1007959189533,-0.00250823974609375,-0.97686767578125,3,4517
21,-0.9765625,32.1061369189398,-0.0025042724609375,-0.97564697265625,3,4518
22,-0.975494384765625,32.1114779189263,-0.00249267578125,-0.9747314453125,3,4519
23,-0.97442626953125,32.1168189189128,-0.0024847412109375,-0.97412109375,3,4520
24,-0.973358154296875,32.1221599188993,-0.00247406005859375,-0.9735107421875,3,4521
25,-0.9722900390625,32.1275009188859,-0.0024658203125,-0.97137451171875,3,4522
26,-0.971221923828125,32.1328419188724,-0.00245941162109375,-0.97076416015625,3,4523
27,-0.97015380859375,32.1381829188589,-0.00244873046875,-0.96923828125,3,4524
28,-0.969085693359375,32.1435239188454,-0.00243743896484375,-0.96832275390625,3,4525
29,-0.968017578125,32.1488649188319,-0.0024298095703125,-0.9674072265625,3,4526
30,-0.966949462890625,32.1542059188184,-0.00242340087890625,-0.96649169921875,3,4527
31,-0.96588134765625,32.1595469188049,-0.00241058349609375,-0.965576171875,3,4528
32,-0.964813232421875,32.1648879187915,-0.00239593505859375,-0.96435546875,3,4529
33,-0.9637451171875,32.170228918778,-0.0023931884765625,-0.96343994140625,3,4530
34,-0.962677001953125,32.1755699187645,-0.0023822021484375,-0.96221923828125,3,4531
35,-0.96160888671875,32.180910918751,-0.00237060546875,-0.96038818359375,3,4532
36,-0.960540771484375,32.1862519187375,-0.0023638916015625,-0.95977783203125,3,4533
37,-0.95947265625,32.191592918724,-0.00234771728515625,-0.9588623046875,3,4534
38,-0.958404541015625,32.1969339187106,-0.002342529296875,-0.95794677734375,3,4535
39,-0.95733642578125,32.2022749186971,-0.0023333740234375,-0.95672607421875,3,4536
40,-0.956268310546875,32.2076159186836,-0.00231903076171875,-0.95550537109375,3,4537
41,-0.9552001953125,32.2129569186701,-0.00231170654296875,-0.95458984375,3,4538
42,-0.954132080078125,32.2182979186566,-0.0023016357421875,-0.9539794921875,3,4539
43,-0.95306396484375,32.2236389186431,-0.00229339599609375,-0.9521484375,3,4540
44,-0.951995849609375,32.2289799186296,-0.00228057861328125,-0.9515380859375,3,4541
45,-0.950927734375,32.2343209186162,-0.0022686767578125,-0.9503173828125,3,4542
46,-0.949859619140625,32.2396619186027,-0.0022613525390625,-0.94940185546875,3,4543
47,-0.94879150390625,32.2450029185892,-0.0022454833984375,-0.94879150390625,3,4544
48,-0.947723388671875,32.2503439185757,-0.0022381591796875,-0.94696044921875,3,4545
49,-0.9466552734375,32.2556849185622,-0.002222900390625,-0.94635009765625,3,4546
50,-0.945587158203125,32.2610259185487,-0.002210693359375,-0.94512939453125,3,4547
51,-0.94451904296875,32.2663669185353,-0.00220123291015625,-0.943603515625,3,4548
52,-0.943450927734375,32.2717079185218,-0.00218658447265625,-0.94268798828125,3,4549
53,-0.9423828125,32.2770489185083,-0.00217041015625,-0.94146728515625,3,4550
54,-0.941314697265625,32.2823899184948,-0.00216522216796875,-0.94085693359375,3,4551
55,-0.94024658203125,32.2877309184813,-0.00215057373046875,-0.9393310546875,3,4552
56,-0.939178466796875,32.2930719184678,-0.0021368408203125,-0.93841552734375,3,4553
57,-0.9381103515625,32.2984129184543,-0.0021197509765625,-0.93719482421875,3,4554
58,-0.937042236328125,32.3037539184409,-0.00210906982421875,-0.936279296875,3,4555
59,-0.93597412109375,32.3090949184274,-0.00209503173828125,-0.93536376953125,3,4556
60,-0.934906005859375,32.3144359184139,-0.00207916259765625,-0.93475341796875,3,4557
61,-0.933837890625,32.3197769184004,-0.0020703125,-0.93292236328125,3,4558
62,-0.932769775390625,32.3251179183869,-0.00205413818359375,-0.9320068359375,3,4559
63,-0.93170166015625,32.3304589183734,-0.00204254150390625,-0.93109130859375,3,4560
64,-0.930633544921875,32.33579991836,-0.0020306396484375,-0.9295654296875,3,4561
65,-0.9295654296875,32.3411409183465,-0.00201080322265625,-0.928955078125,3,4562
66,-0.928497314453125,32.346481918333,-0.00199493408203125,-0.92864990234375,3,4563
67,-0.92742919921875,32.3518229183195,-0.0019842529296875,-0.92620849609375,3,4564
68,-0.926361083984375,32.357163918306,-0.00197784423828125,-0.92559814453125,3,4565
69,-0.92529296875,32.3625049182925,-0.00195892333984375,-0.9246826171875,3,4566
70,-0.924224853515625,32.367845918279,-0.00193511962890625,-0.9234619140625,3,4567
71,-0.92315673828125,32.3731869182656,-0.0019384765625,-0.9222412109375,3,4568
72,-0.922088623046875,32.3785279182521,-0.00191009521484375,-0.92193603515625,3,4569
73,-0.9210205078125,32.3838689182386,-0.00188995361328125,-0.92010498046875,3,4570
74,-0.919952392578125,32.3892099182251,-0.00188629150390625,-0.91888427734375,3,4571
75,-0.91888427734375,32.3945509182116,-0.0018658447265625,-0.9185791015625,3,4572
76,-0.917816162109375,32.3998919181981,-0.001839599609375,-0.91766357421875,3,4573
77,-0.916748046875,32.4052329181847,-0.00183380126953125,-0.91552734375,3,4574
78,-0.915679931640625,32.4105739181712,-0.0018170166015625,-0.91583251953125,3,4575
79,-0.91461181640625,32.4159149181577,-0.00178924560546875,-0.9136962890625,3,4576
80,-0.913543701171875,32.4212559181442,-0.0017840576171875,-0.91339111328125,3,4577
81,-0.9124755859375,32.4265969181307,-0.00176727294921875,-0.91156005859375,3,4578
82,-0.911407470703125,32.4319379181172,-0.001732177734375,-0.91094970703125,3,4579
83,-0.91033935546875,32.4372789181037,-0.00173065185546875,-0.909423828125,3,4580
84,-0.909271240234375,32.4426199180903,-0.0017156982421875,-0.908203125,3,4581
85,-0.908203125,32.4479609180768,-0.001678466796875,-0.90789794921875,3,4582
86,-0.907135009765625,32.4533019180633,-0.0016741943359375,-0.90667724609375,3,4583
87,-0.90606689453125,32.4586429180498,-0.001661376953125,-0.90545654296875,3,4584
88,-0.904998779296875,32.4639839180363,-0.00163299560546875,-0.9039306640625,3,4585
89,-0.9039306640625,32.4693249180228,-0.0016107177734375,-0.9033203125,3,4586
90,-0.902862548828125,32.4746659180094,-0.00159576416015625,-0.9027099609375,3,4587
91,-0.90179443359375,32.4800069179959,-0.0015789794921875,-0.90087890625,3,4588
92,-0.900726318359375,32.4853479179824,-0.00156402587890625,-0.899658203125,3,4589
93,-0.899658203125,32.4906889179689,-0.0015399169921875,-0.8990478515625,3,4590
94,-0.898590087890625,32.4960299179554,-0.00151763916015625,-0.89813232421875,3,4591
95,-0.89752197265625,32.5013709179419,-0.001500244140625,-0.8966064453125,3,4592
96,-0.896453857421875,32.5067119179284,-0.0014801025390625,-0.89599609375,3,4593
97,-0.8953857421875,32.512052917915,-0.00145477294921875,-0.894775390625,3,4594
98,-0.894317626953125,32.5173939179015,-0.00143524169921875,-0.89385986328125,3,4595
99,-0.89324951171875,32.522734917888,-0.0014178466796875,-0.89263916015625,3,4596
100,-0.892181396484375,32.5280759178745,-0.00138916015625,-0.89141845703125,3,4597
101,-0.89111328125,32.533416917861,-0.0013763427734375,-0.8905029296875,3,4598
102,-0.890045166015625,32.5387579178475,-0.0013470458984375,-0.8892822265625,3,4599
103,-0.88897705078125,32.544098917834,-0.00132720947265625,-0.88836669921875,3,4600
104,-0.887908935546875,32.5494399178206,-0.00130462646484375,-0.88775634765625,3,4601
105,-0.8868408203125,32.5547809178071,-0.0012860107421875,-0.88623046875,3,4602
106,-0.885772705078125,32.5601219177936,-0.00126007080078125,-0.88470458984375,3,4603
107,-0.88470458984375,32.5654629177801,-0.00123504638671875,-0.88409423828125,3,4604
108,-0.883636474609375,32.5708039177666,-0.00121429443359375,-0.88348388671875,3,4605
109,-0.882568359375,32.5761449177531,-0.00118621826171875,-0.8819580078125,3,4606
110,-0.881500244140625,32.5814859177397,-0.001162109375,-0.88134765625,3,4607
111,-0.88043212890625,32.5868269177262,-0.0011383056640625,-0.880126953125,3,4608
112,-0.879364013671875,32.5921679177127,-0.00111419677734375,-0.87890625,3,4609
113,-0.8782958984375,32.5975089176992,-0.00109161376953125,-0.8770751953125,3,4610
114,-0.877227783203125,32.6028499176857,-0.00107269287109375,-0.87646484375,3,4611
115,-0.87615966796875,32.6081909176722,-0.0010345458984375,-0.875244140625,3,4612
116,-0.875091552734375,32.6135319176587,-0.001014404296875,-0.8746337890625,3,4613
117,-0.8740234375,32.6188729176453,-0.00099395751953125,-0.87371826171875,3,4614
118,-0.872955322265625,32.6242139176318,-0.000957641601562501,-0.8721923828125,3,4615
119,-0.87188720703125,32.6295549176183,-0.00093536376953125,-0.87127685546875,3,4616
120,-0.870819091796875,32.6348959176048,-0.0009124755859375,-0.87005615234375,3,4617
121,-0.8697509765625,32.6402369175913,-0.00088836669921875,-0.869140625,3,4618
122,-0.868682861328125,32.6455779175778,-0.0008563232421875,-0.86822509765625,3,4619
123,-0.86761474609375,32.6509189175644,-0.000832519531250001,-0.86669921875,3,4620
124,-0.866546630859375,32.6562599175509,-0.000803222656249999,-0.865478515625,3,4621
125,-0.865478515625,32.6616009175374,-0.00077178955078125,-0.8648681640625,3,4622
126,-0.864410400390625,32.6669419175239,-0.00075042724609375,-0.8636474609375,3,4623
127,-0.86334228515625,32.6722829175104,-0.0007147216796875,-0.86273193359375,3,4624
128,-0.862274169921875,32.6776239174969,-0.00068511962890625,-0.86151123046875,3,4625
129,-0.8612060546875,32.6829649174834,-0.0006640625,-0.86029052734375,3,4626
130,-0.860137939453125,32.68830591747,-0.00062591552734375,-0.859375,3,4627
131,-0.85906982421875,32.6936469174565,-0.000596008300781251,-0.8587646484375,3,4628
132,-0.858001708984375,32.698987917443,-0.000567016601562501,-0.85723876953125,3,4629
133,-0.85693359375,32.7043289174295,-0.000542297363281249,-0.85693359375,3,4630
134,-0.855865478515625,32.709669917416,-0.000502929687500001,-0.85540771484375,3,4631
135,-0.85479736328125,32.7150109174025,-0.0004681396484375,-0.8544921875,3,4632
136,-0.853729248046875,32.7203519173891,-0.000444641113281249,-0.85296630859375,3,4633
137,-0.8526611328125,32.7256929173756,-0.000412902832031251,-0.85174560546875,3,4634
138,-0.851593017578125,32.7310339173621,-0.00037261962890625,-0.850830078125,3,4635
139,-0.85052490234375,32.7363749173486,-0.00035247802734375,-0.84991455078125,3,4636
140,-0.849456787109375,32.7417159173351,-0.00031585693359375,-0.8489990234375,3,4637
141,-0.848388671875,32.7470569173216,-0.000283203125000001,-0.8477783203125,3,4638
142,-0.847320556640625,32.7523979173081,-0.0002532958984375,-0.84625244140625,3,4639
143,-0.84625244140625,32.7577389172947,-0.000219116210937501,-0.84564208984375,3,4640
144,-0.845184326171875,32.7630799172812,-0.00018341064453125,-0.84442138671875,3,4641
145,-0.8441162109375,32.7684209172677,-0.000157470703125,-0.8428955078125,3,4642
146,-0.843048095703125,32.7737619172542,-0.0001220703125,-0.84228515625,3,4643
147,-0.84197998046875,32.7791029172407,-7.87353515625006e-05,-0.84136962890625,3,4644
148,-0.840911865234375,32.7844439172272,-5.27954101562506e-05,-0.84014892578125,3,4645
149,-0.83984375,32.7897849172138,-2.593994140625e-05,-0.83892822265625,3,4646
150,-0.838775634765625,32.7951259172003,2.68554687500006e-05,-0.8380126953125,3,4647
151,-0.83770751953125,32.8004669171868,5.52368164062497e-05,-0.83740234375,3,4648
152,-0.836639404296875,32.8058079171733,9.307861328125e-05,-0.8355712890625,3,4649
153,-0.8355712890625,32.8111489171598,0.00013153076171875,-0.83526611328125,3,4650
154,-0.834503173828125,32.8164899171463,0.00016448974609375,-0.83404541015625,3,4651
155,-0.83343505859375,32.8218309171328,0.00019561767578125,-0.83282470703125,3,4652
156,-0.832366943359375,32.8271719171194,0.00024139404296875,-0.83160400390625,3,4653
157,-0.831298828125,32.8325129171059,0.00027496337890625,-0.83038330078125,3,4654
158,-0.830230712890625,32.8378539170924,0.00031402587890625,-0.82916259765625,3,4655
159,-0.82916259765625,32.8431949170789,0.00034942626953125,-0.8282470703125,3,4656
160,-0.828094482421875,32.8485359170654,0.000395812988281249,-0.82733154296875,3,4657
161,-0.8270263671875,32.8538769170519,0.000425109863281251,-0.82611083984375,3,4658
162,-0.825958251953125,32.8592179170384,0.00046722412109375,-0.8251953125,3,4659
163,-0.82489013671875,32.864558917025,0.000511779785156249,-0.82427978515625,3,4660
164,-0.823822021484375,32.8698999170115,0.00053863525390625,-0.82305908203125,3,4661
165,-0.82275390625,32.875240916998,0.0005810546875,-0.8221435546875,3,4662
166,-0.821685791015625,32.8805819169845,0.00061920166015625,-0.8209228515625,3,4663
167,-0.82061767578125,32.885922916971,0.000655517578125001,-0.82000732421875,3,4664
168,-0.819549560546875,32.8912639169575,0.00070343017578125,-0.81878662109375,3,4665
169,-0.8184814453125,32.8966049169441,0.000737915039062501,-0.81756591796875,3,4666
170,-0.817413330078125,32.9019459169306,0.000775146484375,-0.816650390625,3,4667
171,-0.81634521484375,32.9072869169171,0.000818786621093751,-0.8154296875,3,4668
172,-0.815277099609375,32.9126279169036,0.000856933593750001,-0.8148193359375,3,4669
173,-0.814208984375,32.9179689168901,0.00089935302734375,-0.814208984375,3,4670
174,-0.813140869140625,32.9233099168766,0.00093994140625,-0.81268310546875,3,4671
175,-0.81207275390625,32.9286509168631,0.000982055664062501,-0.8111572265625,3,4672
176,-0.811004638671875,32.9339919168497,0.001019287109375,-0.810546875,3,4673
177,-0.8099365234375,32.9393329168362,0.001063232421875,-0.80902099609375,3,4674
178,-0.808868408203125,32.9446739168227,0.00111297607421875,-0.8074951171875,3,4675
179,-0.80780029296875,32.9500149168092,0.00114898681640625,-0.806884765625,3,4676
180,-0.806732177734375,32.9553559167957,0.00119232177734375,-0.8062744140625,3,4677
181,-0.8056640625,32.9606969167822,0.00123931884765625,-0.80474853515625,3,4678
182,-0.804595947265625,32.9660379167688,0.00127960205078125,-0.8038330078125,3,4679
183,-0.80352783203125,32.9713789167553,0.00132232666015625,-0.80291748046875,3,4680
184,-0.802459716796875,32.9767199167418,0.00136627197265625,-0.80169677734375,3,4681
185,-0.8013916015625,32.9820609167283,0.001412353515625,-0.80078125,3,4682
186,-0.800323486328125,32.9874019167148,0.001455078125,-0.799560546875,3,4683
187,-0.79925537109375,32.9927429167013,0.00149627685546875,-0.7989501953125,3,4684
188,-0.798187255859375,32.9980839166878,0.0015533447265625,-0.79742431640625,3,4685
189,-0.797119140625,33.0034249166744,0.00158203125,-0.7965087890625,3,4686
190,-0.796051025390625,33.0087659166609,0.0016302490234375,-0.7952880859375,3,4687
191,-0.79498291015625,33.0141069166474,0.001673583984375,-0.79376220703125,3,4688
192,-0.793914794921875,33.0194479166339,0.0017156982421875,-0.79345703125,3,4689
193,-0.7928466796875,33.0247889166204,0.001766357421875,-0.79193115234375,3,4690
194,-0.791778564453125,33.0301299166069,0.00181121826171875,-0.79132080078125,3,4691
195,-0.79071044921875,33.0354709165935,0.001846923828125,-0.789794921875,3,4692
196,-0.789642333984375,33.04081191658,0.00189666748046875,-0.78887939453125,3,4693
197,-0.78857421875,33.0461529165665,0.00194122314453125,-0.7879638671875,3,4694
198,-0.787506103515625,33.051493916553,0.00197509765625,-0.7867431640625,3,4695
199,-0.78643798828125,33.0568349165395,0.002025146484375,-0.7855224609375,3,4696
200,-0.785369873046875,33.062175916526,0.00206634521484375,-0.784912109375,3,4697
201,-0.7843017578125,33.0675169165125,0.00211212158203125,-0.78338623046875,3,4698
202,-0.783233642578125,33.0728579164991,0.00214752197265625,-0.782470703125,3,4699
203,-0.78216552734375,33.0781989164856,0.00220184326171875,-0.78125,3,4700
204,-0.781097412109375,33.0835399164721,0.0022308349609375,-0.7806396484375,3,4701
205,-0.780029296875,33.0888809164586,0.00228118896484375,-0.7794189453125,3,4702
206,-0.778961181640625,33.0942219164451,0.00233245849609375,-0.77850341796875,3,4703
207,-0.77789306640625,33.0995629164316,0.00236175537109375,-0.7769775390625,3,4704
208,-0.776824951171875,33.1049039164182,0.00241607666015625,-0.7769775390625,3,4705
209,-0.7757568359375,33.1102449164047,0.00245635986328125,-0.77545166015625,3,4706
210,-0.774688720703125,33.1155859163912,0.00250091552734375,-0.77423095703125,3,4707
211,-0.77362060546875,33.1209269163777,0.00253936767578125,-0.7733154296875,3,4708
212,-0.772552490234375,33.1262679163642,0.0025787353515625,-0.77178955078125,3,4709
213,-0.771484375,33.1316089163507,0.002633056640625,-0.77117919921875,3,4710
214,-0.770416259765625,33.1369499163372,0.00266815185546875,-0.76995849609375,3,4711
215,-0.76934814453125,33.1422909163238,0.002713623046875,-0.76873779296875,3,4712
216,-0.768280029296875,33.1476319163103,0.0027630615234375,-0.76812744140625,3,4713
217,-0.7672119140625,33.1529729162968,0.00278900146484375,-0.76690673828125,3,4714
218,-0.766143798828125,33.1583139162833,0.00285308837890625,-0.76568603515625,3,4715
219,-0.76507568359375,33.1636549162698,0.00287353515625,-0.76446533203125,3,4716
220,-0.764007568359375,33.1689959162563,0.0029254150390625,-0.76324462890625,3,4717
221,-0.762939453125,33.1743369162429,0.00297210693359375,-0.7623291015625,3,4718
222,-0.761871337890625,33.1796779162294,0.00301605224609375,-0.76141357421875,3,4719
223,-0.76080322265625,33.1850189162159,0.00304107666015625,-0.76019287109375,3,4720
224,-0.759735107421875,33.1903599162024,0.003089599609375,-0.75927734375,3,4721
225,-0.7586669921875,33.1957009161889,0.00314544677734375,-0.75775146484375,3,4722
226,-0.757598876953125,33.2010419161754,0.00317352294921875,-0.75653076171875,3,4723
227,-0.75653076171875,33.2063829161619,0.00321136474609375,-0.75592041015625,3,4724
228,-0.755462646484375,33.2117239161485,0.0032623291015625,-0.7550048828125,3,4725
229,-0.75439453125,33.217064916135,0.0032965087890625,-0.7537841796875,3,4726
230,-0.753326416015625,33.2224059161215,0.00333984375,-0.75347900390625,3,4727
231,-0.75225830078125,33.227746916108,0.0033929443359375,-0.75164794921875,3,4728
232,-0.751190185546875,33.2330879160945,0.00341339111328125,-0.750732421875,3,4729
233,-0.7501220703125,33.238428916081,0.0034747314453125,-0.749847412109375,3,4730
234,-0.749053955078125,33.2437699160675,0.0035162353515625,-0.748779296875,3,4731
235,-0.74798583984375,33.2491109160541,0.00354736328125,-0.74774169921875,3,4732
236,-0.746917724609375,33.2544519160406,0.00358734130859375,-0.746673583984375,3,4733
237,-0.745849609375,33.2597929160271,0.003629150390625,-0.745635986328125,3,4734
