,Time / s,WE(1).Potential / V,Corrected time / s,Index,WE(1).Current / A
0,0.62526799842135,0.000408935546875003,0.0,1,-1.58691406249994e-05
1,0.635267998396102,0.000399780273437497,0.00999999997475243,2,-1.80053710937503e-05
2,0.645267998370855,0.000390625000000006,0.0199999999495049,3,-1.77001953125006e-05
3,0.655267998345607,0.000390625000000006,0.0299999999242573,4,-1.80053710937503e-05
4,0.66526799832036,0.000387573242187494,0.0399999998990097,5,-1.77001953125006e-05
5,0.675267998295112,0.000387573242187494,0.0499999998737621,6,-1.73950195312494e-05
6,0.685267998269865,0.000387573242187494,0.0599999998485146,7,-1.80053710937503e-05
7,0.695267998244617,0.000384521484374997,0.069999999823267,8,-1.70898437499997e-05
8,0.705267998219369,0.000387573242187494,0.0799999997980194,9,-1.58691406249994e-05
9,0.715267998194122,0.000387573242187494,0.0899999997727718,10,-1.64794921875003e-05
10,0.725267998168874,0.000390625000000006,0.0999999997475243,11,-1.64794921875003e-05
11,0.735267998143627,0.000390625000000006,0.109999999722277,12,-1.8310546875e-05
12,0.745267998118379,0.000390625000000006,0.119999999697029,13,-1.80053710937503e-05
13,0.755267998093132,0.000393676757812503,0.129999999671782,14,-1.70898437499997e-05
14,0.765267998067884,0.000393676757812503,0.139999999646534,15,-1.64794921875003e-05
15,0.775267998042636,0.000393676757812503,0.149999999621286,16,-1.64794921875003e-05
16,0.785267998017389,0.000396728515625,0.159999999596039,17,-1.61743164062506e-05
17,0.795267997992141,0.000396728515625,0.169999999570791,18,-1.70898437499997e-05
18,0.805267997966894,0.000399780273437497,0.179999999545544,19,-1.61743164062506e-05
19,0.815267997941646,0.000396728515625,0.189999999520296,20,-1.678466796875e-05
20,0.825267997916399,0.000399780273437497,0.199999999495049,21,-1.70898437499997e-05
21,0.835267997891151,0.000402832031249994,0.209999999469801,22,-1.678466796875e-05
22,0.845267997865903,0.000399780273437497,0.219999999444553,23,-1.678466796875e-05
23,0.855267997840656,0.000402832031249994,0.229999999419306,24,-1.70898437499997e-05
24,0.865267997815408,0.000402832031249994,0.239999999394058,25,-1.80053710937503e-05
25,0.875267997790161,0.000405883789062506,0.249999999368811,26,-1.77001953125006e-05
26,0.885267997764913,0.000405883789062506,0.259999999343563,27,-1.89208984374994e-05
27,0.895267997739666,0.000405883789062506,0.269999999318316,28,-1.58691406249994e-05
28,0.905267997714418,0.000418090820312494,0.279999999293068,29,-1.77001953125006e-05
29,0.91526799768917,0.000399780273437497,0.28999999926782,30,-1.678466796875e-05
30,0.925267997663923,0.000408935546875003,0.299999999242573,31,-1.77001953125006e-05
31,0.935267997638675,0.000424194335937503,0.309999999217325,32,-1.73950195312494e-05
32,0.945267997613428,0.000393676757812503,0.319999999192078,33,-1.70898437499997e-05
33,0.95526799758818,0.000433349609374994,0.32999999916683,34,-1.86157226562497e-05
34,0.965267997562933,0.000405883789062506,0.339999999141583,35,-1.58691406249994e-05
35,0.975267997537685,0.000415039062499997,0.349999999116335,36,-1.70898437499997e-05
36,0.985267997512437,0.000430297851562497,0.359999999091087,37,-1.64794921875003e-05
37,0.99526799748719,0.000399780273437497,0.36999999906584,38,-1.8310546875e-05
38,1.00526799746194,0.000439453125000003,0.379999999040592,39,-1.77001953125006e-05
39,1.01526799743669,0.0004119873046875,0.389999999015345,40,-1.61743164062506e-05
40,1.02526799741145,0.000424194335937503,0.399999998990097,41,-1.70898437499997e-05
41,1.0352679973862,0.000436401367187506,0.40999999896485,42,-1.73950195312494e-05
42,1.04526799736095,0.000405883789062506,0.419999998939602,43,-1.61743164062506e-05
43,1.0552679973357,0.0004425048828125,0.429999998914354,44,-1.8310546875e-05
44,1.06526799731046,0.000421142578125006,0.439999998889107,45,-1.77001953125006e-05
45,1.07526799728521,0.00042724609375,0.449999998863859,46,-1.73950195312494e-05
46,1.08526799725996,0.000430297851562497,0.459999998838612,47,-1.77001953125006e-05
47,1.09526799723471,0.000430297851562497,0.469999998813364,48,-1.678466796875e-05
48,1.10526799720947,0.000433349609374994,0.479999998788116,49,-1.58691406249994e-05
49,1.11526799718422,0.000433349609374994,0.489999998762869,50,-1.73950195312494e-05
50,1.12526799715897,0.000433349609374994,0.499999998737621,51,-1.77001953125006e-05
51,1.13526799713372,0.000436401367187506,0.509999998712374,52,-1.73950195312494e-05
52,1.14526799710848,0.000433349609374994,0.519999998687126,53,-1.64794921875003e-05
53,1.15526799708323,0.000436401367187506,0.529999998661879,54,-1.64794921875003e-05
54,1.16526799705798,0.000436401367187506,0.539999998636631,55,-1.92260742187506e-05
55,1.17526799703273,0.000439453125000003,0.549999998611383,56,-1.70898437499997e-05
56,1.18526799700749,0.000439453125000003,0.559999998586136,57,-1.73950195312494e-05
57,1.19526799698224,0.000439453125000003,0.569999998560888,58,-1.678466796875e-05
58,1.20526799695699,0.0004425048828125,0.579999998535641,59,-1.70898437499997e-05
59,1.21526799693174,0.0004425048828125,0.589999998510393,60,-1.8310546875e-05
60,1.2252679969065,0.0004425048828125,0.599999998485146,61,-1.77001953125006e-05
61,1.23526799688125,0.000445556640624997,0.609999998459898,62,-1.86157226562497e-05
62,1.245267996856,0.0004425048828125,0.61999999843465,63,-1.64794921875003e-05
63,1.25526799683075,0.000448608398437494,0.629999998409403,64,-1.80053710937503e-05
64,1.26526799680551,0.000445556640624997,0.639999998384155,65,-1.73950195312494e-05
65,1.27526799678026,0.000448608398437494,0.649999998358908,66,-1.77001953125006e-05
66,1.28526799675501,0.000448608398437494,0.65999999833366,67,-1.678466796875e-05
67,1.29526799672976,0.000448608398437494,0.669999998308413,68,-1.77001953125006e-05
68,1.30526799670452,0.000451660156250006,0.679999998283165,69,-1.678466796875e-05
69,1.31526799667927,0.000451660156250006,0.689999998257917,70,-1.64794921875003e-05
70,1.32526799665402,0.000454711914062503,0.69999999823267,71,-1.70898437499997e-05
71,1.33526799662877,0.000454711914062503,0.709999998207422,72,-1.73950195312494e-05
72,1.34526799660352,0.000454711914062503,0.719999998182175,73,-1.678466796875e-05
73,1.35526799657828,0.000457763671875,0.729999998156927,74,-1.80053710937503e-05
74,1.36526799655303,0.000457763671875,0.73999999813168,75,-1.678466796875e-05
75,1.37526799652778,0.000457763671875,0.749999998106432,76,-1.64794921875003e-05
76,1.38526799650253,0.000460815429687497,0.759999998081184,77,-1.80053710937503e-05
77,1.39526799647729,0.000457763671875,0.769999998055937,78,-1.86157226562497e-05
78,1.40526799645204,0.000463867187499994,0.779999998030689,79,-1.55639648437497e-05
79,1.41526799642679,0.000460815429687497,0.789999998005442,80,-1.89208984374994e-05
80,1.42526799640154,0.000463867187499994,0.799999997980194,81,-1.80053710937503e-05
81,1.4352679963763,0.000463867187499994,0.809999997954947,82,-1.80053710937503e-05
82,1.44526799635105,0.000463867187499994,0.819999997929699,83,-1.678466796875e-05
83,1.4552679963258,0.000466918945312506,0.829999997904451,84,-1.89208984374994e-05
84,1.46526799630055,0.000466918945312506,0.839999997879204,85,-1.55639648437497e-05
85,1.47526799627531,0.000466918945312506,0.849999997853956,86,-1.8310546875e-05
86,1.48526799625006,0.000469970703125003,0.859999997828709,87,-1.58691406249994e-05
87,1.49526799622481,0.000469970703125003,0.869999997803461,88,-1.678466796875e-05
88,1.50526799619956,0.0004730224609375,0.879999997778214,89,-1.73950195312494e-05
89,1.51526799617432,0.000469970703125003,0.889999997752966,90,-1.678466796875e-05
90,1.52526799614907,0.0004730224609375,0.899999997727718,91,-1.61743164062506e-05
91,1.53526799612382,0.0004730224609375,0.909999997702471,92,-1.678466796875e-05
92,1.54526799609857,0.0004730224609375,0.919999997677223,93,-1.73950195312494e-05
93,1.55526799607333,0.000476074218749997,0.929999997651976,94,-1.70898437499997e-05
94,1.56526799604808,0.000476074218749997,0.939999997626728,95,-1.8310546875e-05
95,1.57526799602283,0.000479125976562494,0.949999997601481,96,-1.678466796875e-05
96,1.58526799599758,0.000479125976562494,0.959999997576233,97,-1.678466796875e-05
97,1.59526799597234,0.000479125976562494,0.969999997550985,98,-1.70898437499997e-05
98,1.60526799594709,0.000482177734375006,0.979999997525738,99,-1.73950195312494e-05
99,1.61526799592184,0.000479125976562494,0.98999999750049,100,-1.678466796875e-05
100,1.62526799589659,0.000482177734375006,0.999999997475243,101,-1.70898437499997e-05
101,1.63526799587135,0.000482177734375006,1.00999999745,102,-1.70898437499997e-05
102,1.6452679958461,0.000482177734375006,1.01999999742475,103,-1.8310546875e-05
103,1.65526799582085,0.000485229492187503,1.0299999973995,104,-1.70898437499997e-05
104,1.6652679957956,0.000485229492187503,1.03999999737425,105,-1.61743164062506e-05
105,1.67526799577035,0.000485229492187503,1.049999997349,106,-1.8310546875e-05
106,1.68526799574511,0.00048828125,1.05999999732376,107,-1.77001953125006e-05
107,1.69526799571986,0.00048828125,1.06999999729851,108,-1.58691406249994e-05
108,1.70526799569461,0.000491333007812497,1.07999999727326,109,-1.61743164062506e-05
109,1.71526799566936,0.000491333007812497,1.08999999724801,110,-1.77001953125006e-05
110,1.72526799564412,0.000491333007812497,1.09999999722277,111,-1.86157226562497e-05
111,1.73526799561887,0.000491333007812497,1.10999999719752,112,-1.77001953125006e-05
112,1.74526799559362,0.000491333007812497,1.11999999717227,113,-1.678466796875e-05
113,1.75526799556837,0.000494384765624994,1.12999999714702,114,-1.73950195312494e-05
114,1.76526799554313,0.000494384765624994,1.13999999712178,115,-1.64794921875003e-05
115,1.77526799551788,0.000497436523437506,1.14999999709653,116,-1.73950195312494e-05
116,1.78526799549263,0.000497436523437506,1.15999999707128,117,-1.61743164062506e-05
117,1.79526799546738,0.000497436523437506,1.16999999704603,118,-1.89208984374994e-05
118,1.80526799544214,0.000500488281250003,1.17999999702079,119,-1.61743164062506e-05
119,1.81526799541689,0.000500488281250003,1.18999999699554,120,-1.73950195312494e-05
120,1.82526799539164,0.000500488281250003,1.19999999697029,121,-1.80053710937503e-05
121,1.83526799536639,0.000500488281250003,1.20999999694504,122,-1.55639648437497e-05
122,1.84526799534115,0.000500488281250003,1.2199999969198,123,-1.678466796875e-05
123,1.8552679953159,0.000506591796874997,1.22999999689455,124,-1.61743164062506e-05
124,1.86526799529065,0.0005035400390625,1.2399999968693,125,-1.64794921875003e-05
125,1.8752679952654,0.000506591796874997,1.24999999684405,126,-1.70898437499997e-05
126,1.88526799524016,0.000506591796874997,1.25999999681881,127,-1.64794921875003e-05
127,1.89526799521491,0.000506591796874997,1.26999999679356,128,-1.73950195312494e-05
128,1.90526799518966,0.000518798828125,1.27999999676831,129,-1.77001953125006e-05
129,1.91526799516441,0.0005035400390625,1.28999999674306,130,-1.58691406249994e-05
130,1.92526799513917,0.000509643554687494,1.29999999671782,131,-1.73950195312494e-05
131,1.93526799511392,0.000524902343749994,1.30999999669257,132,-1.678466796875e-05
132,1.94526799508867,0.000494384765624994,1.31999999666732,133,-1.70898437499997e-05
133,1.95526799506342,0.000531005859375003,1.32999999664207,134,-1.73950195312494e-05
134,1.96526799503818,0.000506591796874997,1.33999999661683,135,-1.55639648437497e-05
135,1.97526799501293,0.000512695312500006,1.34999999659158,136,-1.77001953125006e-05
136,1.98526799498768,0.000531005859375003,1.35999999656633,137,-1.80053710937503e-05
137,1.99526799496243,0.000497436523437506,1.36999999654108,138,-1.678466796875e-05
138,2.00526799493718,0.0005340576171875,1.37999999651583,139,-1.61743164062506e-05
139,2.01526799491194,0.000509643554687494,1.38999999649059,140,-1.64794921875003e-05
140,2.02526799488669,0.000515747070312503,1.39999999646534,141,-1.77001953125006e-05
141,2.03526799486144,0.000531005859375003,1.40999999644009,142,-1.678466796875e-05
142,2.04526799483619,0.000500488281250003,1.41999999641484,143,-1.73950195312494e-05
143,2.05526799481095,0.000537109374999997,1.4299999963896,144,-1.70898437499997e-05
144,2.0652679947857,0.000515747070312503,1.43999999636435,145,-1.64794921875003e-05
145,2.07526799476045,0.000521850585937497,1.4499999963391,146,-1.80053710937503e-05
146,2.0852679947352,0.000521850585937497,1.45999999631385,147,-1.70898437499997e-05
147,2.09526799470996,0.000521850585937497,1.46999999628861,148,-1.80053710937503e-05
148,2.10526799468471,0.000524902343749994,1.47999999626336,149,-1.55639648437497e-05
149,2.11526799465946,0.000524902343749994,1.48999999623811,150,-1.70898437499997e-05
150,2.12526799463421,0.000527954101562506,1.49999999621286,151,-1.80053710937503e-05
151,2.13526799460897,0.000527954101562506,1.50999999618762,152,-1.678466796875e-05
152,2.14526799458372,0.000524902343749994,1.51999999616237,153,-1.80053710937503e-05
153,2.15526799455847,0.000527954101562506,1.52999999613712,154,-1.86157226562497e-05
154,2.16526799453322,0.000527954101562506,1.53999999611187,155,-1.678466796875e-05
155,2.17526799450798,0.000531005859375003,1.54999999608663,156,-1.86157226562497e-05
156,2.18526799448273,0.000531005859375003,1.55999999606138,157,-1.86157226562497e-05
157,2.19526799445748,0.000531005859375003,1.56999999603613,158,-1.61743164062506e-05
158,2.20526799443223,0.0005340576171875,1.57999999601088,159,-1.73950195312494e-05
159,2.21526799440699,0.000531005859375003,1.58999999598564,160,-1.80053710937503e-05
160,2.22526799438174,0.0005340576171875,1.59999999596039,161,-1.52587890625e-05
161,2.23526799435649,0.000537109374999997,1.60999999593514,162,-1.70898437499997e-05
162,2.24526799433124,0.0005340576171875,1.61999999590989,163,-1.678466796875e-05
163,2.255267994306,0.000537109374999997,1.62999999588465,164,-1.77001953125006e-05
164,2.26526799428075,0.000537109374999997,1.6399999958594,165,-1.73950195312494e-05
165,2.2752679942555,0.000537109374999997,1.64999999583415,166,-1.52587890625e-05
166,2.28526799423025,0.000540161132812494,1.6599999958089,167,-1.77001953125006e-05
167,2.29526799420501,0.000537109374999997,1.66999999578366,168,-1.73950195312494e-05
168,2.30526799417976,0.000543212890625006,1.67999999575841,169,-1.678466796875e-05
169,2.31526799415451,0.000540161132812494,1.68999999573316,170,-1.678466796875e-05
170,2.32526799412926,0.000543212890625006,1.69999999570791,171,-1.678466796875e-05
171,2.33526799410402,0.000543212890625006,1.70999999568267,172,-1.73950195312494e-05
172,2.34526799407877,0.000543212890625006,1.71999999565742,173,-1.678466796875e-05
173,2.35526799405352,0.000546264648437503,1.72999999563217,174,-1.8310546875e-05
174,2.36526799402827,0.000546264648437503,1.73999999560692,175,-1.80053710937503e-05
175,2.37526799400302,0.000546264648437503,1.74999999558167,176,-1.77001953125006e-05
176,2.38526799397778,0.00054931640625,1.75999999555643,177,-1.73950195312494e-05
177,2.39526799395253,0.000546264648437503,1.76999999553118,178,-1.678466796875e-05
178,2.40526799392728,0.00054931640625,1.77999999550593,179,-1.89208984374994e-05
179,2.41526799390203,0.00054931640625,1.78999999548068,180,-1.678466796875e-05
180,2.42526799387679,0.00054931640625,1.79999999545544,181,-1.80053710937503e-05
181,2.43526799385154,0.000552368164062497,1.80999999543019,182,-1.86157226562497e-05
182,2.44526799382629,0.000552368164062497,1.81999999540494,183,-1.70898437499997e-05
183,2.45526799380104,0.000555419921874994,1.82999999537969,184,-1.80053710937503e-05
184,2.4652679937758,0.000552368164062497,1.83999999535445,185,-1.70898437499997e-05
185,2.47526799375055,0.000555419921874994,1.8499999953292,186,-1.77001953125006e-05
186,2.4852679937253,0.000555419921874994,1.85999999530395,187,-1.8310546875e-05
187,2.49526799370005,0.000555419921874994,1.8699999952787,188,-1.64794921875003e-05
188,2.50526799367481,0.000558471679687506,1.87999999525346,189,-1.678466796875e-05
189,2.51526799364956,0.000558471679687506,1.88999999522821,190,-1.86157226562497e-05
190,2.52526799362431,0.000558471679687506,1.89999999520296,191,-1.52587890625e-05
191,2.53526799359906,0.000561523437500003,1.90999999517771,192,-1.89208984374994e-05
192,2.54526799357382,0.000558471679687506,1.91999999515247,193,-1.80053710937503e-05
193,2.55526799354857,0.000561523437500003,1.92999999512722,194,-1.70898437499997e-05
194,2.56526799352332,0.000561523437500003,1.93999999510197,195,-1.64794921875003e-05
195,2.57526799349807,0.000561523437500003,1.94999999507672,196,-1.70898437499997e-05
196,2.58526799347283,0.0005645751953125,1.95999999505148,197,-1.61743164062506e-05
197,2.59526799344758,0.000561523437500003,1.96999999502623,198,-1.70898437499997e-05
198,2.60526799342233,0.0005645751953125,1.97999999500098,199,-1.70898437499997e-05
199,2.61526799339708,0.0005645751953125,1.98999999497573,200,-1.58691406249994e-05
200,2.62526799337184,0.000567626953124997,1.99999999495049,201,-1.77001953125006e-05
201,2.63526799334659,0.000567626953124997,2.00999999492524,202,-1.70898437499997e-05
202,2.64526799332134,0.000567626953124997,2.01999999489999,203,-1.77001953125006e-05
203,2.65526799329609,0.000570678710937494,2.02999999487474,204,-1.73950195312494e-05
204,2.66526799327085,0.000567626953124997,2.0399999948495,205,-1.80053710937503e-05
205,2.6752679932456,0.000570678710937494,2.04999999482425,206,-1.73950195312494e-05
206,2.68526799322035,0.000570678710937494,2.059999994799,207,-1.678466796875e-05
207,2.6952679931951,0.000570678710937494,2.06999999477375,208,-1.678466796875e-05
208,2.70526799316985,0.000573730468750006,2.0799999947485,209,-1.92260742187506e-05
209,2.71526799314461,0.000573730468750006,2.08999999472326,210,-1.70898437499997e-05
210,2.72526799311936,0.000573730468750006,2.09999999469801,211,-1.73950195312494e-05
211,2.73526799309411,0.000573730468750006,2.10999999467276,212,-1.61743164062506e-05
212,2.74526799306886,0.000573730468750006,2.11999999464751,213,-1.70898437499997e-05
213,2.75526799304362,0.000576782226562503,2.12999999462227,214,-1.86157226562497e-05
214,2.76526799301837,0.000576782226562503,2.13999999459702,215,-1.77001953125006e-05
215,2.77526799299312,0.000579833984375,2.14999999457177,216,-1.678466796875e-05
216,2.78526799296787,0.000579833984375,2.15999999454652,217,-1.61743164062506e-05
217,2.79526799294263,0.000576782226562503,2.16999999452128,218,-1.55639648437497e-05
218,2.80526799291738,0.000582885742187497,2.17999999449603,219,-1.61743164062506e-05
219,2.81526799289213,0.000582885742187497,2.18999999447078,220,-1.61743164062506e-05
220,2.82526799286688,0.000582885742187497,2.19999999444553,221,-1.73950195312494e-05
221,2.83526799284164,0.000582885742187497,2.20999999442029,222,-1.77001953125006e-05
222,2.84526799281639,0.000582885742187497,2.21999999439504,223,-1.678466796875e-05
223,2.85526799279114,0.000585937499999994,2.22999999436979,224,-1.55639648437497e-05
224,2.86526799276589,0.000585937499999994,2.23999999434454,225,-1.678466796875e-05
225,2.87526799274065,0.000585937499999994,2.2499999943193,226,-1.80053710937503e-05
226,2.8852679927154,0.0005950927734375,2.25999999429405,227,-1.58691406249994e-05
227,2.89526799269015,0.000567626953124997,2.2699999942688,228,-1.64794921875003e-05
228,2.9052679926649,0.000604248046875006,2.27999999424355,229,-1.77001953125006e-05
229,2.91526799263966,0.000582885742187497,2.28999999421831,230,-1.64794921875003e-05
230,2.92526799261441,0.000582885742187497,2.29999999419306,231,-1.55639648437497e-05
231,2.93526799258916,0.000604248046875006,2.30999999416781,232,-1.58691406249994e-05
232,2.94526799256391,0.000573730468750006,2.31999999414256,233,-1.80053710937503e-05
233,2.95526799253867,0.000607299804687503,2.32999999411732,234,-1.70898437499997e-05
234,2.96526799251342,0.000585937499999994,2.33999999409207,235,-1.8310546875e-05
235,2.97526799248817,0.000585937499999994,2.34999999406682,236,-1.80053710937503e-05
