,Potential applied / V,Time / s,WE(1).Current / A,WE(1).Potential / V,Scan,Index
0,0.001068115234375,43.4079388904055,0.0024310302734375,0.0012054443359375,2,6931
1,0.00213623046875,43.413279890392,0.0024346923828125,0.00229492187499999,2,6932
2,0.003204345703125,43.4186208903785,0.00242889404296875,0.00333557128906251,2,6933
3,0.0042724609375,43.423961890365,0.0024273681640625,0.00439453125,2,6934
4,0.005340576171875,43.4293028903516,0.0024298095703125,0.005474853515625,2,6935
5,0.00640869140625,43.4346438903381,0.0024200439453125,0.0065338134765625,2,6936
6,0.007476806640625,43.4399848903246,0.0024188232421875,0.0076171875,2,6937
7,0.008544921875,43.4453258903111,0.0024127197265625,0.00867309570312499,2,6938
8,0.009613037109375,43.4506668902976,0.00242156982421875,0.00974426269531251,2,6939
9,0.01068115234375,43.4560078902841,0.00241729736328125,0.0108123779296875,2,6940
10,0.011749267578125,43.4613488902706,0.00241668701171875,0.0118865966796875,2,6941
11,0.0128173828125,43.4666898902572,0.00242095947265625,0.0129364013671875,2,6942
12,0.013885498046875,43.4720308902437,0.00240997314453125,0.0140167236328125,2,6943
13,0.01495361328125,43.4773718902302,0.0024200439453125,0.0150848388671875,2,6944
14,0.016021728515625,43.4827128902167,0.00241058349609375,0.016143798828125,2,6945
15,0.01708984375,43.4880538902032,0.00240692138671875,0.017205810546875,2,6946
16,0.018157958984375,43.4933948901897,0.0024029541015625,0.0182708740234375,2,6947
17,0.01922607421875,43.4987358901762,0.00240234375,0.0193634033203125,2,6948
18,0.020294189453125,43.5040768901628,0.0024102783203125,0.02041015625,2,6949
19,0.0213623046875,43.5094178901493,0.0024029541015625,0.021478271484375,2,6950
20,0.022430419921875,43.5147588901358,0.00240386962890625,0.0225341796875,2,6951
21,0.02349853515625,43.5200998901223,0.00240081787109375,0.0236175537109375,2,6952
22,0.024566650390625,43.5254408901088,0.0024017333984375,0.024676513671875,2,6953
23,0.025634765625,43.5307818900953,0.00239990234375,0.0257720947265625,2,6954
24,0.026702880859375,43.5361228900819,0.00239776611328125,0.0268157958984375,2,6955
25,0.02777099609375,43.5414638900684,0.00240386962890625,0.027880859375,2,6956
26,0.028839111328125,43.5468048900549,0.00240020751953125,0.028955078125,2,6957
27,0.0299072265625,43.5521458900414,0.002401123046875,0.030010986328125,2,6958
28,0.030975341796875,43.5574868900279,0.00240203857421875,0.031085205078125,2,6959
29,0.03204345703125,43.5628278900144,0.00239837646484375,0.0321746826171875,2,6960
30,0.033111572265625,43.5681688900009,0.002401123046875,0.03323974609375,2,6961
31,0.0341796875,43.5735098899875,0.00239532470703125,0.034307861328125,2,6962
32,0.035247802734375,43.578850889974,0.00239990234375,0.03536376953125,2,6963
33,0.03631591796875,43.5841918899605,0.00239715576171875,0.0364288330078125,2,6964
34,0.037384033203125,43.589532889947,0.002396240234375,0.0375152587890625,2,6965
35,0.0384521484375,43.5948738899335,0.00239959716796875,0.0385650634765625,2,6966
36,0.039520263671875,43.60021488992,0.002391357421875,0.039630126953125,2,6967
37,0.04058837890625,43.6055558899066,0.0024005126953125,0.040692138671875,2,6968
38,0.041656494140625,43.6108968898931,0.0023907470703125,0.0417633056640625,2,6969
39,0.042724609375,43.6162378898796,0.00239105224609375,0.0428253173828125,2,6970
40,0.043792724609375,43.6215788898661,0.0023870849609375,0.0438873291015625,2,6971
41,0.04486083984375,43.6269198898526,0.00239044189453125,0.0449462890625,2,6972
42,0.045928955078125,43.6322608898391,0.0023974609375,0.046038818359375,2,6973
43,0.0469970703125,43.6376018898256,0.00239013671875,0.047113037109375,2,6974
44,0.048065185546875,43.6429428898122,0.002396240234375,0.0481719970703125,2,6975
45,0.04913330078125,43.6482838897987,0.002403564453125,0.049237060546875,2,6976
46,0.050201416015625,43.6536248897852,0.00240020751953125,0.05029296875,2,6977
47,0.05126953125,43.6589658897717,0.00239898681640625,0.051361083984375,2,6978
48,0.052337646484375,43.6643068897582,0.00240203857421875,0.0523681640625,2,6979
49,0.05340576171875,43.6696478897447,0.00240509033203125,0.053497314453125,2,6980
50,0.054473876953125,43.6749888897313,0.00240753173828125,0.05450439453125,2,6981
51,0.0555419921875,43.6803298897178,0.00240966796875,0.055633544921875,2,6982
52,0.056610107421875,43.6856708897043,0.0024041748046875,0.056671142578125,2,6983
53,0.05767822265625,43.6910118896908,0.00241241455078125,0.0577392578125,2,6984
54,0.058746337890625,43.6963528896773,0.00241119384765625,0.058807373046875,2,6985
55,0.059814453125,43.7016938896638,0.00241058349609375,0.059906005859375,2,6986
56,0.060882568359375,43.7070348896503,0.0024114990234375,0.060943603515625,2,6987
57,0.06195068359375,43.7123758896369,0.00240875244140625,0.06201171875,2,6988
58,0.063018798828125,43.7177168896234,0.00241546630859375,0.0631103515625,2,6989
59,0.0640869140625,43.7230578896099,0.0024114990234375,0.06414794921875,2,6990
60,0.065155029296875,43.7283988895964,0.00241912841796875,0.065185546875,2,6991
61,0.06622314453125,43.7337398895829,0.00241546630859375,0.0662841796875,2,6992
62,0.067291259765625,43.7390808895694,0.00240997314453125,0.067352294921875,2,6993
63,0.068359375,43.744421889556,0.00242156982421875,0.068389892578125,2,6994
64,0.069427490234375,43.7497628895425,0.0024139404296875,0.06951904296875,2,6995
65,0.07049560546875,43.755103889529,0.0024261474609375,0.070587158203125,2,6996
66,0.071563720703125,43.7604448895155,0.0024237060546875,0.0716552734375,2,6997
67,0.0726318359375,43.765785889502,0.0024267578125,0.07269287109375,2,6998
68,0.073699951171875,43.7711268894885,0.00242706298828125,0.073760986328125,2,6999
69,0.07476806640625,43.776467889475,0.00242645263671875,0.074859619140625,2,7000
70,0.075836181640625,43.7818088894616,0.0024334716796875,0.07586669921875,2,7001
71,0.076904296875,43.7871498894481,0.0024249267578125,0.07696533203125,2,7002
72,0.077972412109375,43.7924908894346,0.00243377685546875,0.078033447265625,2,7003
73,0.07904052734375,43.7978318894211,0.0024285888671875,0.079071044921875,2,7004
74,0.080108642578125,43.8031728894076,0.00242584228515625,0.08013916015625,2,7005
75,0.0811767578125,43.8085138893941,0.002427978515625,0.081268310546875,2,7006
76,0.082244873046875,43.8138548893807,0.00242401123046875,0.082305908203125,2,7007
77,0.08331298828125,43.8191958893672,0.002445068359375,0.08343505859375,2,7008
78,0.084381103515625,43.8245368893537,0.0024310302734375,0.08447265625,2,7009
79,0.08544921875,43.8298778893402,0.0024468994140625,0.085540771484375,2,7010
80,0.086517333984375,43.8352188893267,0.00243499755859375,0.0865478515625,2,7011
81,0.08758544921875,43.8405598893132,0.0024383544921875,0.087615966796875,2,7012
82,0.088653564453125,43.8459008892997,0.0024444580078125,0.0887451171875,2,7013
83,0.0897216796875,43.8512418892863,0.00244171142578125,0.089813232421875,2,7014
84,0.090789794921875,43.8565828892728,0.00245147705078125,0.090911865234375,2,7015
85,0.09185791015625,43.8619238892593,0.00244537353515625,0.09197998046875,2,7016
86,0.092926025390625,43.8672648892458,0.0024566650390625,0.092987060546875,2,7017
87,0.093994140625,43.8726058892323,0.00245269775390625,0.094024658203125,2,7018
88,0.095062255859375,43.8779468892188,0.00246002197265625,0.095123291015625,2,7019
89,0.09613037109375,43.8832878892053,0.002459716796875,0.09619140625,2,7020
90,0.097198486328125,43.8886288891919,0.002457275390625,0.09722900390625,2,7021
91,0.0982666015625,43.8939698891784,0.00247467041015625,0.098297119140625,2,7022
92,0.099334716796875,43.8993108891649,0.00245574951171875,0.099365234375,2,7023
93,0.10040283203125,43.9046518891514,0.0024658203125,0.10052490234375,2,7024
94,0.101470947265625,43.9099928891379,0.0024639892578125,0.1015625,2,7025
95,0.1025390625,43.9153338891244,0.00246856689453125,0.102630615234375,2,7026
96,0.103607177734375,43.920674889111,0.0024737548828125,0.103668212890625,2,7027
97,0.10467529296875,43.9260158890975,0.0024658203125,0.104705810546875,2,7028
98,0.105743408203125,43.931356889084,0.00247955322265625,0.10589599609375,2,7029
99,0.1068115234375,43.9366978890705,0.00247283935546875,0.106842041015625,2,7030
100,0.107879638671875,43.942038889057,0.00248443603515625,0.107940673828125,2,7031
101,0.10894775390625,43.9473798890435,0.00247711181640625,0.1090087890625,2,7032
102,0.110015869140625,43.95272088903,0.00247894287109375,0.110076904296875,2,7033
103,0.111083984375,43.9580618890166,0.00248809814453125,0.111175537109375,2,7034
104,0.112152099609375,43.9634028890031,0.00247314453125,0.11224365234375,2,7035
105,0.11322021484375,43.9687438889896,0.00248077392578125,0.113311767578125,2,7036
106,0.114288330078125,43.9740848889761,0.00247222900390625,0.11431884765625,2,7037
107,0.1153564453125,43.9794258889626,0.00247589111328125,0.115447998046875,2,7038
108,0.116424560546875,43.9847668889491,0.00247161865234375,0.116485595703125,2,7039
109,0.11749267578125,43.9901078889357,0.00246368408203125,0.11749267578125,2,7040
110,0.118560791015625,43.9954488889222,0.00247314453125,0.118621826171875,2,7041
111,0.11962890625,44.0007898889087,0.0024627685546875,0.11962890625,2,7042
112,0.120697021484375,44.0061308888952,0.00246124267578125,0.120758056640625,2,7043
113,0.12176513671875,44.0114718888817,0.00246246337890625,0.121826171875,2,7044
114,0.122833251953125,44.0168128888682,0.00246826171875,0.122894287109375,2,7045
115,0.1239013671875,44.0221538888547,0.00246551513671875,0.1239013671875,2,7046
116,0.124969482421875,44.0274948888413,0.0024639892578125,0.125030517578125,2,7047
117,0.12603759765625,44.0328358888278,0.00246734619140625,0.126068115234375,2,7048
118,0.127105712890625,44.0381768888143,0.002464599609375,0.127197265625,2,7049
119,0.128173828125,44.0435178888008,0.002471923828125,0.12823486328125,2,7050
120,0.129241943359375,44.0488588887873,0.00247222900390625,0.129302978515625,2,7051
121,0.13031005859375,44.0541998887738,0.00247161865234375,0.13037109375,2,7052
122,0.131378173828125,44.0595408887604,0.00247467041015625,0.13140869140625,2,7053
123,0.1324462890625,44.0648818887469,0.00247894287109375,0.132537841796875,2,7054
124,0.133514404296875,44.0702228887334,0.00248291015625,0.133514404296875,2,7055
125,0.13458251953125,44.0755638887199,0.0024725341796875,0.134613037109375,2,7056
126,0.135650634765625,44.0809048887064,0.0024786376953125,0.1357421875,2,7057
127,0.13671875,44.0862458886929,0.00246856689453125,0.13671875,2,7058
128,0.137786865234375,44.0915868886794,0.00247161865234375,0.1378173828125,2,7059
129,0.13885498046875,44.096927888666,0.002470703125,0.138885498046875,2,7060
130,0.139923095703125,44.1022688886525,0.0024627685546875,0.139984130859375,2,7061
131,0.1409912109375,44.107609888639,0.00246673583984375,0.141021728515625,2,7062
132,0.142059326171875,44.1129508886255,0.00246185302734375,0.14208984375,2,7063
133,0.14312744140625,44.118291888612,0.0024603271484375,0.143157958984375,2,7064
134,0.144195556640625,44.1236328885985,0.0024603271484375,0.14422607421875,2,7065
135,0.145263671875,44.1289738885851,0.002454833984375,0.145263671875,2,7066
136,0.146331787109375,44.1343148885716,0.0024664306640625,0.1463623046875,2,7067
137,0.14739990234375,44.1396558885581,0.002437744140625,0.1474609375,2,7068
138,0.148468017578125,44.1449968885446,0.00245086669921875,0.148468017578125,2,7069
139,0.1495361328125,44.1503378885311,0.00244842529296875,0.149505615234375,2,7070
140,0.150604248046875,44.1556788885176,0.002437744140625,0.150604248046875,2,7071
141,0.15167236328125,44.1610198885041,0.00244049072265625,0.15167236328125,2,7072
142,0.152740478515625,44.1663608884907,0.0024359130859375,0.152740478515625,2,7073
143,0.15380859375,44.1717018884772,0.002432861328125,0.15380859375,2,7074
144,0.154876708984375,44.1770428884637,0.00242156982421875,0.1549072265625,2,7075
145,0.15594482421875,44.1823838884502,0.0024237060546875,0.15594482421875,2,7076
146,0.157012939453125,44.1877248884367,0.00241302490234375,0.15704345703125,2,7077
147,0.1580810546875,44.1930658884232,0.00240936279296875,0.158111572265625,2,7078
148,0.159149169921875,44.1984068884097,0.00242919921875,0.1591796875,2,7079
149,0.16021728515625,44.2037478883963,0.002401123046875,0.16021728515625,2,7080
150,0.161285400390625,44.2090888883828,0.002412109375,0.161285400390625,2,7081
151,0.162353515625,44.2144298883693,0.0024127197265625,0.16241455078125,2,7082
152,0.163421630859375,44.2197708883558,0.00241363525390625,0.1634521484375,2,7083
153,0.16448974609375,44.2251118883423,0.0023992919921875,0.164520263671875,2,7084
154,0.165557861328125,44.2304528883288,0.00240203857421875,0.165557861328125,2,7085
155,0.1666259765625,44.2357938883154,0.0024005126953125,0.166656494140625,2,7086
156,0.167694091796875,44.2411348883019,0.00239532470703125,0.167694091796875,2,7087
157,0.16876220703125,44.2464758882884,0.0023956298828125,0.168701171875,2,7088
158,0.169830322265625,44.2518168882749,0.00238922119140625,0.169830322265625,2,7089
159,0.1708984375,44.2571578882614,0.00239166259765625,0.1708984375,2,7090
160,0.171966552734375,44.2624988882479,0.002391357421875,0.171966552734375,2,7091
161,0.17303466796875,44.2678398882344,0.0023931884765625,0.173004150390625,2,7092
162,0.174102783203125,44.273180888221,0.002391357421875,0.174102783203125,2,7093
163,0.1751708984375,44.2785218882075,0.00238983154296875,0.175201416015625,2,7094
164,0.176239013671875,44.283862888194,0.0023883056640625,0.176239013671875,2,7095
165,0.17730712890625,44.2892038881805,0.00238555908203125,0.17730712890625,2,7096
166,0.178375244140625,44.294544888167,0.0023876953125,0.178436279296875,2,7097
167,0.179443359375,44.2998858881535,0.0023834228515625,0.179443359375,2,7098
168,0.180511474609375,44.3052268881401,0.0023773193359375,0.180511474609375,2,7099
169,0.18157958984375,44.3105678881266,0.00238616943359375,0.181549072265625,2,7100
170,0.182647705078125,44.3159088881131,0.00237640380859375,0.18267822265625,2,7101
171,0.1837158203125,44.3212498880996,0.0023736572265625,0.18377685546875,2,7102
172,0.184783935546875,44.3265908880861,0.0023699951171875,0.184814453125,2,7103
173,0.18585205078125,44.3319318880726,0.0023663330078125,0.185821533203125,2,7104
174,0.186920166015625,44.3372728880591,0.0023626708984375,0.18695068359375,2,7105
175,0.18798828125,44.3426138880457,0.00235015869140625,0.18792724609375,2,7106
176,0.189056396484375,44.3479548880322,0.002362060546875,0.18902587890625,2,7107
177,0.19012451171875,44.3532958880187,0.00234832763671875,0.190155029296875,2,7108
178,0.191192626953125,44.3586368880052,0.00235137939453125,0.191192626953125,2,7109
179,0.1922607421875,44.3639778879917,0.00234405517578125,0.1922607421875,2,7110
180,0.193328857421875,44.3693188879782,0.00234466552734375,0.193267822265625,2,7111
181,0.19439697265625,44.3746598879648,0.00234588623046875,0.19439697265625,2,7112
182,0.195465087890625,44.3800008879513,0.002344970703125,0.19549560546875,2,7113
183,0.196533203125,44.3853418879378,0.002347412109375,0.19659423828125,2,7114
184,0.197601318359375,44.3906828879243,0.00234527587890625,0.1976318359375,2,7115
185,0.19866943359375,44.3960238879108,0.0023419189453125,0.19866943359375,2,7116
186,0.199737548828125,44.4013648878973,0.00233612060546875,0.19976806640625,2,7117
187,0.2008056640625,44.4067058878838,0.0023345947265625,0.200897216796875,2,7118
188,0.201873779296875,44.4120468878704,0.0023388671875,0.201812744140625,2,7119
189,0.20294189453125,44.4173878878569,0.00233001708984375,0.202911376953125,2,7120
190,0.204010009765625,44.4227288878434,0.00233062744140625,0.2039794921875,2,7121
191,0.205078125,44.4280698878299,0.00232940673828125,0.205078125,2,7122
192,0.206146240234375,44.4334108878164,0.00233306884765625,0.206085205078125,2,7123
193,0.20721435546875,44.4387518878029,0.00232818603515625,0.20721435546875,2,7124
194,0.208282470703125,44.4440928877895,0.00232879638671875,0.208282470703125,2,7125
195,0.2093505859375,44.449433887776,0.002330322265625,0.20941162109375,2,7126
196,0.210418701171875,44.4547748877625,0.00231964111328125,0.210418701171875,2,7127
197,0.21148681640625,44.460115887749,0.00233001708984375,0.211517333984375,2,7128
198,0.212554931640625,44.4654568877355,0.0023187255859375,0.21258544921875,2,7129
199,0.213623046875,44.470797887722,0.002322998046875,0.213592529296875,2,7130
200,0.214691162109375,44.4761388877085,0.00232696533203125,0.21466064453125,2,7131
201,0.21575927734375,44.4814798876951,0.00232513427734375,0.21575927734375,2,7132
202,0.216827392578125,44.4868208876816,0.00232269287109375,0.216796875,2,7133
203,0.2178955078125,44.4921618876681,0.0023211669921875,0.2178955078125,2,7134
204,0.218963623046875,44.4975028876546,0.00232940673828125,0.21893310546875,2,7135
205,0.22003173828125,44.5028438876411,0.0023187255859375,0.22003173828125,2,7136
206,0.221099853515625,44.5081848876276,0.00232452392578125,0.221038818359375,2,7137
207,0.22216796875,44.5135258876142,0.002318115234375,0.222137451171875,2,7138
208,0.223236083984375,44.5188668876007,0.00231292724609375,0.22320556640625,2,7139
209,0.22430419921875,44.5242078875872,0.002314453125,0.224273681640625,2,7140
210,0.225372314453125,44.5295488875737,0.00230804443359375,0.225311279296875,2,7141
211,0.2264404296875,44.5348898875602,0.0023065185546875,0.2264404296875,2,7142
212,0.227508544921875,44.5402308875467,0.00230499267578125,0.22747802734375,2,7143
213,0.22857666015625,44.5455718875332,0.00230865478515625,0.228546142578125,2,7144
214,0.229644775390625,44.5509128875198,0.00230499267578125,0.2296142578125,2,7145
215,0.230712890625,44.5562538875063,0.00229339599609375,0.230621337890625,2,7146
216,0.231781005859375,44.5615948874928,0.00230560302734375,0.231719970703125,2,7147
217,0.23284912109375,44.5669358874793,0.00229156494140625,0.232818603515625,2,7148
218,0.233917236328125,44.5722768874658,0.00229705810546875,0.23388671875,2,7149
219,0.2349853515625,44.5776178874523,0.002294921875,0.2349853515625,2,7150
220,0.236053466796875,44.5829588874388,0.0022882080078125,0.23602294921875,2,7151
221,0.23712158203125,44.5882998874254,0.002296142578125,0.237060546875,2,7152
222,0.238189697265625,44.5936408874119,0.00228729248046875,0.238128662109375,2,7153
223,0.2392578125,44.5989818873984,0.00228790283203125,0.239227294921875,2,7154
224,0.240325927734375,44.6043228873849,0.00228668212890625,0.240325927734375,2,7155
225,0.24139404296875,44.6096638873714,0.00229583740234375,0.241424560546875,2,7156
226,0.242462158203125,44.6150048873579,0.0022869873046875,0.242431640625,2,7157
227,0.2435302734375,44.6203458873445,0.002283935546875,0.2435302734375,2,7158
228,0.244598388671875,44.625686887331,0.0022882080078125,0.244598388671875,2,7159
229,0.24566650390625,44.6310278873175,0.00229278564453125,0.24566650390625,2,7160
230,0.246734619140625,44.636368887304,0.00228973388671875,0.246734619140625,2,7161
231,0.247802734375,44.6417098872905,0.002286376953125,0.247772216796875,2,7162
232,0.248870849609375,44.647050887277,0.00229217529296875,0.2489013671875,2,7163
233,0.24993896484375,44.6523918872635,0.0022845458984375,0.249908447265625,2,7164
234,0.251007080078125,44.6577328872501,0.00228759765625,0.25103759765625,2,7165
235,0.2520751953125,44.6630738872366,0.00228851318359375,0.252044677734375,2,7166
236,0.253143310546875,44.6684148872231,0.00228424072265625,0.25311279296875,2,7167
237,0.25421142578125,44.6737558872096,0.0022918701171875,0.25421142578125,2,7168
238,0.255279541015625,44.6790968871961,0.0022943115234375,0.255279541015625,2,7169
239,0.25634765625,44.6844378871826,0.00228912353515625,0.25628662109375,2,7170
240,0.257415771484375,44.6897788871692,0.00229217529296875,0.257415771484375,2,7171
241,0.25848388671875,44.6951198871557,0.0022894287109375,0.258453369140625,2,7172
242,0.259552001953125,44.7004608871422,0.00228759765625,0.259521484375,2,7173
