,Potential applied / V,Time / s,WE(1).Current / A,WE(1).Potential / V,Scan,Index
0,-0.001068115234375,6.16243998444133,0.0037078857421875,-0.000805664062500003,1,1
1,-0.00213623046875,6.16510998443459,0.00360107421875,-0.001861572265625,1,2
2,-0.003204345703125,6.16777998442785,0.0036590576171875,-0.00295410156250001,1,3
3,-0.0042724609375,6.17044998442111,0.0036346435546875,-0.00398864746093749,1,4
4,-0.005340576171875,6.17311998441437,0.00416259765625,-0.0050933837890625,1,5
5,-0.00640869140625,6.17578998440763,0.0037872314453125,-0.006146240234375,1,6
6,-0.007476806640625,6.17845998440089,0.00363769531249999,-0.00722351074218749,1,7
7,-0.008544921875,6.18112998439415,0.003448486328125,-0.00830078125,1,8
8,-0.009613037109375,6.18379998438741,0.00334777832031249,-0.0093414306640625,1,9
9,-0.01068115234375,6.18646998438066,0.0034027099609375,-0.010394287109375,1,10
10,-0.011749267578125,6.18913998437392,0.0034332275390625,-0.01148681640625,1,11
11,-0.0128173828125,6.19180998436718,0.00331726074218749,-0.0125396728515625,1,12
12,-0.013885498046875,6.19447998436044,0.003436279296875,-0.0136077880859375,1,13
13,-0.01495361328125,6.1971499843537,0.0033416748046875,-0.0146697998046875,1,14
14,-0.016021728515625,6.19981998434696,0.003314208984375,-0.0157440185546875,1,15
15,-0.01708984375,6.20248998434022,0.00316162109375,-0.016839599609375,1,16
16,-0.018157958984375,6.20515998433348,0.003173828125,-0.017889404296875,1,17
17,-0.01922607421875,6.20782998432674,0.00303955078125,-0.01890869140625,1,18
18,-0.020294189453125,6.21049998431999,0.0030487060546875,-0.02000732421875,1,19
19,-0.0213623046875,6.21316998431325,0.0030670166015625,-0.021099853515625,1,20
20,-0.022430419921875,6.21583998430651,0.003009033203125,-0.0221405029296875,1,21
21,-0.02349853515625,6.21850998429977,0.0029876708984375,-0.0232086181640625,1,22
22,-0.024566650390625,6.22117998429303,0.0029449462890625,-0.024273681640625,1,23
23,-0.025634765625,6.22384998428629,0.00303039550781251,-0.025341796875,1,24
24,-0.026702880859375,6.22651998427955,0.0029327392578125,-0.0264190673828125,1,25
25,-0.02777099609375,6.22918998427281,0.00296936035156251,-0.0274658203125,1,26
26,-0.028839111328125,6.23185998426607,0.002911376953125,-0.0285369873046875,1,27
27,-0.0299072265625,6.23452998425932,0.00281677246093751,-0.02957763671875,1,28
28,-0.030975341796875,6.23719998425258,0.0027313232421875,-0.0306488037109375,1,29
29,-0.03204345703125,6.23986998424584,0.00270690917968749,-0.031756591796875,1,30
30,-0.033111572265625,6.2425399842391,0.00263061523437499,-0.032794189453125,1,31
31,-0.0341796875,6.24520998423236,0.00262451171875,-0.0338470458984375,1,32
32,-0.035247802734375,6.24787998422562,0.002581787109375,-0.0349212646484375,1,33
33,-0.03631591796875,6.25054998421888,0.0025360107421875,-0.035980224609375,1,34
34,-0.037384033203125,6.25321998421214,0.002545166015625,-0.0370574951171875,1,35
35,-0.0384521484375,6.2558899842054,0.0025054931640625,-0.03812255859375,1,36
36,-0.039520263671875,6.25855998419866,0.002471923828125,-0.039202880859375,1,37
37,-0.04058837890625,6.26122998419191,0.00279846191406249,-0.040301513671875,1,38
38,-0.041656494140625,6.26389998418517,0.002716064453125,-0.0412506103515625,1,39
39,-0.042724609375,6.26656998417843,0.0024261474609375,-0.042388916015625,1,40
40,-0.043792724609375,6.26923998417169,0.00299682617187499,-0.04344482421875,1,41
41,-0.04486083984375,6.27190998416495,0.002655029296875,-0.04454345703125,1,42
42,-0.045928955078125,6.27457998415821,0.00235900878906251,-0.04560546875,1,43
43,-0.0469970703125,6.27724998415147,0.00274047851562501,-0.046685791015625,1,44
44,-0.048065185546875,6.27991998414473,0.00284423828124999,-0.04771728515625,1,45
45,-0.04913330078125,6.28258998413799,0.00229797363281251,-0.04879150390625,1,46
46,-0.050201416015625,6.28525998413124,0.00301208496093749,-0.049835205078125,1,47
47,-0.05126953125,6.2879299841245,0.001995849609375,-0.05096435546875,1,48
48,-0.052337646484375,6.29059998411776,0.00188598632812501,-0.052001953125,1,49
49,-0.05340576171875,6.29326998411102,0.0017669677734375,-0.05303955078125,1,50
50,-0.054473876953125,6.29593998410428,0.00169982910156249,-0.054168701171875,1,51
51,-0.0555419921875,6.29860998409754,0.00160827636718749,-0.055206298828125,1,52
52,-0.056610107421875,6.3012799840908,0.001507568359375,-0.0562744140625,1,53
53,-0.05767822265625,6.30394998408406,0.0013580322265625,-0.057373046875,1,54
54,-0.058746337890625,6.30661998407732,0.00128173828125,-0.058441162109375,1,55
55,-0.059814453125,6.30928998407057,0.000906372070312494,-0.059478759765625,1,56
56,-0.060882568359375,6.31195998406383,0.0008544921875,-0.060577392578125,1,57
57,-0.06195068359375,6.31462998405709,0.0007781982421875,-0.0616455078125,1,58
58,-0.063018798828125,6.31729998405035,0.000604248046875006,-0.062744140625,1,59
59,-0.0640869140625,6.31996998404361,0.000424194335937503,-0.063751220703125,1,60
60,-0.065155029296875,6.32263998403687,0.000302124023437503,-0.064788818359375,1,61
61,-0.06622314453125,6.32530998403013,2.74658203125028e-05,-0.065887451171875,1,62
62,-0.067291259765625,6.32797998402339,3.05175781249722e-06,-0.066925048828125,1,63
63,-0.068359375,6.33064998401665,-0.000134277343750003,-0.06805419921875,1,64
64,-0.069427490234375,6.3333199840099,-0.000189208984374994,-0.06903076171875,1,65
65,-0.07049560546875,6.33598998400316,-0.000213623046875,-0.0701904296875,1,66
66,-0.071563720703125,6.33865998399642,-0.000173950195312494,-0.07122802734375,1,67
67,-0.0726318359375,6.34132998398968,-0.00018310546875,-0.07232666015625,1,68
68,-0.073699951171875,6.34399998398294,-0.000115966796875006,-0.073333740234375,1,69
69,-0.07476806640625,6.3466699839762,9.15527343750555e-06,-0.074432373046875,1,70
70,-0.075836181640625,6.34933998396946,6.71386718749944e-05,-0.075439453125,1,71
71,-0.076904296875,6.35200998396272,0.000244140625,-0.076568603515625,1,72
72,-0.077972412109375,6.35467998395598,0.000170898437499997,-0.07769775390625,1,73
73,-0.07904052734375,6.35734998394923,0.000192260742187506,-0.078704833984375,1,74
74,-0.080108642578125,6.36001998394249,0.000363159179687503,-0.07977294921875,1,75
75,-0.0811767578125,6.36268998393575,0.000415039062499997,-0.08087158203125,1,76
76,-0.082244873046875,6.36535998392901,0.0003814697265625,-0.0819091796875,1,77
77,-0.08331298828125,6.36802998392227,0.00042724609375,-0.083038330078125,1,78
78,-0.084381103515625,6.37069998391553,0.000445556640624997,-0.084075927734375,1,79
79,-0.08544921875,6.37336998390879,0.000546264648437503,-0.0850830078125,1,80
80,-0.086517333984375,6.37603998390205,0.000531005859375003,-0.086212158203125,1,81
81,-0.08758544921875,6.37870998389531,0.0005035400390625,-0.087249755859375,1,82
82,-0.088653564453125,6.38137998388856,0.0006103515625,-0.088348388671875,1,83
83,-0.0897216796875,6.38404998388182,0.0006561279296875,-0.089385986328125,1,84
84,-0.090789794921875,6.38671998387508,0.000567626953124997,-0.090484619140625,1,85
85,-0.09185791015625,6.38938998386834,0.000588989257812506,-0.091552734375,1,86
86,-0.092926025390625,6.3920599838616,0.000570678710937494,-0.092620849609375,1,87
87,-0.093994140625,6.39472998385486,0.0005340576171875,-0.093658447265625,1,88
88,-0.095062255859375,6.39739998384812,0.000527954101562506,-0.09478759765625,1,89
89,-0.09613037109375,6.40006998384138,0.000616455078124994,-0.09576416015625,1,90
90,-0.097198486328125,6.40273998383464,0.000527954101562506,-0.096832275390625,1,91
91,-0.0982666015625,6.40540998382789,0.000604248046875006,-0.097930908203125,1,92
92,-0.099334716796875,6.40807998382115,0.000515747070312503,-0.099029541015625,1,93
93,-0.10040283203125,6.41074998381441,0.000436401367187506,-0.10003662109375,1,94
94,-0.101470947265625,6.41341998380767,0.0005035400390625,-0.101104736328125,1,95
95,-0.1025390625,6.41608998380093,0.000439453125000003,-0.102203369140625,1,96
96,-0.103607177734375,6.41875998379419,0.000436401367187506,-0.103240966796875,1,97
97,-0.10467529296875,6.42142998378745,0.000378417968750003,-0.104339599609375,1,98
98,-0.105743408203125,6.42409998378071,0.000314331054687506,-0.10540771484375,1,99
99,-0.1068115234375,6.42676998377397,0.0003662109375,-0.10650634765625,1,100
100,-0.107879638671875,6.42943998376722,0.000299072265625006,-0.1075439453125,1,101
101,-0.10894775390625,6.43210998376048,0.000253295898437506,-0.10858154296875,1,102
102,-0.110015869140625,6.43477998375374,0.000225830078125003,-0.10968017578125,1,103
103,-0.111083984375,6.437449983747,0.000152587890625,-0.110687255859375,1,104
104,-0.112152099609375,6.44011998374026,0.0001373291015625,-0.11175537109375,1,105
105,-0.11322021484375,6.44278998373352,6.40869140624972e-05,-0.11285400390625,1,106
106,-0.114288330078125,6.44545998372678,3.0517578125e-05,-0.113922119140625,1,107
107,-0.1153564453125,6.44812998372004,1.83105468749972e-05,-0.11492919921875,1,108
108,-0.116424560546875,6.4507999837133,-6.71386718749944e-05,-0.1160888671875,1,109
109,-0.11749267578125,6.45346998370655,-0.000131225585937506,-0.11712646484375,1,110
110,-0.118560791015625,6.45613998369981,-0.000244140625,-0.11822509765625,1,111
111,-0.11962890625,6.45880998369307,-0.000262451171874997,-0.119232177734375,1,112
112,-0.120697021484375,6.46147998368633,-0.00030517578125,-0.120330810546875,1,113
113,-0.12176513671875,6.46414998367959,-0.000433349609374994,-0.12139892578125,1,114
114,-0.122833251953125,6.46681998367285,-0.000479125976562494,-0.122467041015625,1,115
115,-0.1239013671875,6.46948998366611,-0.000543212890625006,-0.12353515625,1,116
116,-0.124969482421875,6.47215998365937,-0.000634765625000006,-0.12457275390625,1,117
117,-0.12603759765625,6.47482998365263,-0.000708007812499994,-0.12567138671875,1,118
118,-0.127105712890625,6.47749998364588,-0.000836181640625003,-0.12664794921875,1,119
119,-0.128173828125,6.48016998363914,-0.000897216796875003,-0.127777099609375,1,120
120,-0.129241943359375,6.4828399836324,-0.000979614257812497,-0.1287841796875,1,121
121,-0.13031005859375,6.48550998362566,-0.00112304687500001,-0.129913330078125,1,122
122,-0.131378173828125,6.48817998361892,-0.001202392578125,-0.13092041015625,1,123
123,-0.1324462890625,6.49084998361218,-0.0013458251953125,-0.131988525390625,1,124
124,-0.133514404296875,6.49351998360544,-0.00139770507812501,-0.133056640625,1,125
125,-0.13458251953125,6.4961899835987,-0.0014984130859375,-0.134124755859375,1,126
126,-0.135650634765625,6.49885998359196,-0.001568603515625,-0.13519287109375,1,127
127,-0.13671875,6.50152998358521,-0.0016326904296875,-0.13629150390625,1,128
128,-0.137786865234375,6.50419998357847,-0.0018310546875,-0.137420654296875,1,129
129,-0.13885498046875,6.50686998357173,-0.00191650390625001,-0.13848876953125,1,130
130,-0.139923095703125,6.50953998356499,-0.00203857421875001,-0.1395263671875,1,131
131,-0.1409912109375,6.51220998355825,-0.0021942138671875,-0.140625,1,132
132,-0.142059326171875,6.51487998355151,-0.00229797363281251,-0.141632080078125,1,133
133,-0.14312744140625,6.51754998354477,-0.0024871826171875,-0.14276123046875,1,134
134,-0.144195556640625,6.52021998353803,-0.002655029296875,-0.143798828125,1,135
135,-0.145263671875,6.52288998353129,-0.00289001464843749,-0.144866943359375,1,136
136,-0.146331787109375,6.52555998352454,-0.0032501220703125,-0.145965576171875,1,137
137,-0.14739990234375,6.5282299835178,-0.00347900390625,-0.147064208984375,1,138
138,-0.148468017578125,6.53089998351106,-0.00397644042968751,-0.148101806640625,1,139
139,-0.1495361328125,6.53356998350432,-0.0046234130859375,-0.149139404296875,1,140
140,-0.150604248046875,6.53623998349758,-0.005450439453125,-0.150238037109375,1,141
141,-0.15167236328125,6.53890998349084,-0.00650939941406251,-0.15130615234375,1,142
142,-0.152740478515625,6.5415799834841,-0.00774230957031249,-0.152374267578125,1,143
143,-0.15380859375,6.54424998347736,-0.009295654296875,-0.15338134765625,1,144
144,-0.154876708984375,6.54691998347062,-0.0115631103515625,-0.154449462890625,1,145
145,-0.15594482421875,6.54958998346387,-0.0142791748046875,-0.155517578125,1,146
146,-0.157012939453125,6.55225998345713,-0.0180206298828125,-0.15655517578125,1,147
147,-0.1580810546875,6.55492998345039,-0.022760009765625,-0.157684326171875,1,148
148,-0.159149169921875,6.55759998344365,-0.0285247802734375,-0.15875244140625,1,149
149,-0.16021728515625,6.56026998343691,-0.0351715087890625,-0.159820556640625,1,150
150,-0.161285400390625,6.56293998343017,-0.0427703857421875,-0.160858154296875,1,151
151,-0.162353515625,6.56560998342343,-0.05108642578125,-0.1619873046875,1,152
152,-0.163421630859375,6.56827998341669,-0.06024169921875,-0.16302490234375,1,153
153,-0.16448974609375,6.57094998340995,-0.070220947265625,-0.164154052734375,1,154
154,-0.165557861328125,6.5736199834032,-0.080322265625,-0.165191650390625,1,155
155,-0.1666259765625,6.57628998339646,-0.091064453125,-0.166259765625,1,156
156,-0.167694091796875,6.57895998338972,-0.102081298828125,-0.1673583984375,1,157
157,-0.16876220703125,6.58162998338298,-0.113525390625,-0.16845703125,1,158
158,-0.169830322265625,6.58429998337624,-0.125091552734375,-0.16949462890625,1,159
159,-0.1708984375,6.5869699833695,-0.13671875,-0.170562744140625,1,160
160,-0.171966552734375,6.58963998336276,-0.148193359375,-0.17169189453125,1,161
161,-0.17303466796875,6.59230998335602,-0.1590576171875,-0.17266845703125,1,162
162,-0.174102783203125,6.59497998334928,-0.169952392578125,-0.173736572265625,1,163
163,-0.1751708984375,6.59764998334254,-0.18023681640625,-0.174835205078125,1,164
164,-0.176239013671875,6.60031998333579,-0.18988037109375,-0.175933837890625,1,165
165,-0.17730712890625,6.60298998332905,-0.199188232421875,-0.17706298828125,1,166
166,-0.178375244140625,6.60565998332231,-0.20770263671875,-0.1781005859375,1,167
167,-0.179443359375,6.60832998331557,-0.2158203125,-0.179168701171875,1,168
168,-0.180511474609375,6.61099998330883,-0.223052978515625,-0.180267333984375,1,169
169,-0.18157958984375,6.61366998330209,-0.230499267578125,-0.18133544921875,1,170
170,-0.182647705078125,6.61633998329535,-0.236480712890625,-0.182373046875,1,171
171,-0.1837158203125,6.61900998328861,-0.242431640625,-0.183502197265625,1,172
172,-0.184783935546875,6.62167998328187,-0.247589111328125,-0.184539794921875,1,173
173,-0.18585205078125,6.62434998327512,-0.251800537109375,-0.185699462890625,1,174
174,-0.186920166015625,6.62701998326838,-0.255950927734375,-0.1866455078125,1,175
175,-0.18798828125,6.62968998326164,-0.26055908203125,-0.187713623046875,1,176
176,-0.189056396484375,6.6323599832549,-0.26409912109375,-0.18878173828125,1,177
177,-0.19012451171875,6.63502998324816,-0.26727294921875,-0.18988037109375,1,178
178,-0.191192626953125,6.63769998324142,-0.270355224609375,-0.19097900390625,1,179
179,-0.1922607421875,6.64036998323468,-0.272491455078125,-0.1920166015625,1,180
180,-0.193328857421875,6.64303998322794,-0.274871826171875,-0.193115234375,1,181
181,-0.19439697265625,6.6457099832212,-0.27642822265625,-0.19415283203125,1,182
182,-0.195465087890625,6.64837998321445,-0.278045654296875,-0.19525146484375,1,183
183,-0.196533203125,6.65104998320771,-0.279327392578125,-0.1962890625,1,184
184,-0.197601318359375,6.65371998320097,-0.2808837890625,-0.1973876953125,1,185
185,-0.19866943359375,6.65638998319423,-0.281768798828125,-0.19842529296875,1,186
186,-0.199737548828125,6.65905998318749,-0.282562255859375,-0.199554443359375,1,187
187,-0.2008056640625,6.66172998318075,-0.283172607421875,-0.2005615234375,1,188
188,-0.201873779296875,6.66439998317401,-0.283355712890625,-0.201629638671875,1,189
189,-0.20294189453125,6.66706998316727,-0.283538818359375,-0.20263671875,1,190
190,-0.204010009765625,6.66973998316053,-0.283660888671875,-0.2037353515625,1,191
191,-0.205078125,6.67240998315378,-0.283538818359375,-0.204803466796875,1,192
192,-0.206146240234375,6.67507998314704,-0.283416748046875,-0.20587158203125,1,193
193,-0.20721435546875,6.6777499831403,-0.283050537109375,-0.20697021484375,1,194
194,-0.208282470703125,6.68041998313356,-0.282928466796875,-0.2080078125,1,195
195,-0.2093505859375,6.68308998312682,-0.282135009765625,-0.20904541015625,1,196
196,-0.210418701171875,6.68575998312008,-0.281707763671875,-0.210174560546875,1,197
197,-0.21148681640625,6.68842998311334,-0.28094482421875,-0.211273193359375,1,198
198,-0.212554931640625,6.6910999831066,-0.28021240234375,-0.2122802734375,1,199
199,-0.213623046875,6.69376998309986,-0.279449462890625,-0.21331787109375,1,200
200,-0.214691162109375,6.69643998309311,-0.278717041015625,-0.214447021484375,1,201
201,-0.21575927734375,6.69910998308637,-0.277679443359375,-0.2154541015625,1,202
202,-0.216827392578125,6.70177998307963,-0.27679443359375,-0.216552734375,1,203
203,-0.2178955078125,6.70444998307289,-0.27569580078125,-0.21759033203125,1,204
204,-0.218963623046875,6.70711998306615,-0.2745361328125,-0.2186279296875,1,205
205,-0.22003173828125,6.70978998305941,-0.273773193359375,-0.2197265625,1,206
206,-0.221099853515625,6.71245998305267,-0.2725830078125,-0.22076416015625,1,207
207,-0.22216796875,6.71512998304593,-0.271484375,-0.22186279296875,1,208
208,-0.223236083984375,6.71779998303919,-0.2703857421875,-0.222869873046875,1,209
209,-0.22430419921875,6.72046998303244,-0.26898193359375,-0.223907470703125,1,210
210,-0.225372314453125,6.7231399830257,-0.267608642578125,-0.224945068359375,1,211
211,-0.2264404296875,6.72580998301896,-0.266357421875,-0.22607421875,1,212
212,-0.227508544921875,6.72847998301222,-0.26519775390625,-0.227142333984375,1,213
213,-0.22857666015625,6.73114998300548,-0.264190673828125,-0.228179931640625,1,214
214,-0.229644775390625,6.73381998299874,-0.26287841796875,-0.229278564453125,1,215
215,-0.230712890625,6.736489982992,-0.26177978515625,-0.2303466796875,1,216
216,-0.231781005859375,6.73915998298526,-0.26019287109375,-0.2314453125,1,217
217,-0.23284912109375,6.74182998297852,-0.258880615234375,-0.23248291015625,1,218
218,-0.233917236328125,6.74449998297177,-0.25738525390625,-0.2335205078125,1,219
219,-0.2349853515625,6.74716998296503,-0.256439208984375,-0.234527587890625,1,220
220,-0.236053466796875,6.74983998295829,-0.2550048828125,-0.235626220703125,1,221
221,-0.23712158203125,6.75250998295155,-0.25372314453125,-0.236663818359375,1,222
222,-0.238189697265625,6.75517998294481,-0.2523193359375,-0.237762451171875,1,223
223,-0.2392578125,6.75784998293807,-0.250946044921875,-0.23876953125,1,224
224,-0.240325927734375,6.76051998293133,-0.24969482421875,-0.239898681640625,1,225
225,-0.24139404296875,6.76318998292459,-0.24822998046875,-0.240966796875,1,226
226,-0.242462158203125,6.76585998291785,-0.246856689453125,-0.241943359375,1,227
227,-0.2435302734375,6.7685299829111,-0.24566650390625,-0.243072509765625,1,228
228,-0.244598388671875,6.77119998290436,-0.244354248046875,-0.244171142578125,1,229
229,-0.24566650390625,6.77386998289762,-0.243072509765625,-0.245208740234375,1,230
230,-0.246734619140625,6.77653998289088,-0.241851806640625,-0.2462158203125,1,231
231,-0.247802734375,6.77920998288414,-0.240447998046875,-0.247314453125,1,232
232,-0.248870849609375,6.7818799828774,-0.2391357421875,-0.248443603515625,1,233
233,-0.24993896484375,6.78454998287066,-0.237945556640625,-0.249420166015625,1,234
234,-0.251007080078125,6.78721998286392,-0.236724853515625,-0.25054931640625,1,235
235,-0.2520751953125,6.78988998285718,-0.235565185546875,-0.251617431640625,1,236
236,-0.253143310546875,6.79255998285043,-0.23419189453125,-0.252655029296875,1,237
237,-0.25421142578125,6.79522998284369,-0.233001708984375,-0.25372314453125,1,238
238,-0.255279541015625,6.79789998283695,-0.231689453125,-0.25482177734375,1,239
239,-0.25634765625,6.80056998283021,-0.2305908203125,-0.255767822265625,1,240
240,-0.257415771484375,6.80323998282347,-0.22930908203125,-0.2568359375,1,241
241,-0.25848388671875,6.80590998281673,-0.22796630859375,-0.257904052734375,1,242
242,-0.259552001953125,6.80857998280999,-0.226959228515625,-0.259033203125,1,243
243,-0.2606201171875,6.81124998280325,-0.225738525390625,-0.2601318359375,1,244
244,-0.261688232421875,6.81391998279651,-0.22479248046875,-0.261199951171875,1,245
