,Time / s,WE(1).Potential / V,Corrected time / s,Index,WE(1).Current / A
0,0.487261998769782,-0.212066650390625,0.0,1,-0.20013427734375
1,0.497261998744534,-0.24285888671875,0.00999999997475243,2,-0.199981689453125
2,0.507261998719287,-0.271392822265625,0.0199999999495049,3,-0.199981689453125
3,0.517261998694039,-0.300872802734375,0.0299999999242573,4,-0.19989013671875
4,0.527261998668791,-0.334075927734375,0.0399999998990097,5,-0.19989013671875
5,0.537261998643544,-0.376373291015625,0.0499999998737621,6,-0.199920654296875
6,0.547261998618296,-0.439178466796875,0.0599999998485146,7,-0.199920654296875
7,0.557261998593049,-0.5419921875,0.069999999823267,8,-0.1998291015625
8,0.567261998567801,-0.660400390625,0.0799999997980194,9,-0.199798583984375
9,0.577261998542554,-0.7708740234375,0.0899999997727718,10,-0.199798583984375
10,0.587261998517306,-0.8551025390625,0.0999999997475243,11,-0.1998291015625
11,0.597261998492058,-0.91064453125,0.109999999722277,12,-0.199859619140625
12,0.607261998466811,-0.948486328125,0.119999999697029,13,-0.199859619140625
13,0.617261998441563,-0.9747314453125,0.129999999671782,14,-0.199920654296875
14,0.627261998416316,-0.994873046875,0.139999999646534,15,-0.199859619140625
15,0.637261998391068,-1.01104736328125,0.149999999621286,16,-0.19989013671875
16,0.647261998365821,-1.02386474609375,0.159999999596039,17,-0.19989013671875
17,0.657261998340573,-1.0345458984375,0.169999999570791,18,-0.199920654296875
18,0.667261998315325,-1.04248046875,0.179999999545544,19,-0.199920654296875
19,0.677261998290078,-1.05010986328125,0.189999999520296,20,-0.199951171875
20,0.68726199826483,-1.05560302734375,0.199999999495049,21,-0.199951171875
21,0.697261998239583,-1.0595703125,0.209999999469801,22,-0.199920654296875
22,0.707261998214335,-1.0638427734375,0.219999999444553,23,-0.19989013671875
23,0.717261998189088,-1.06658935546875,0.229999999419306,24,-0.199951171875
24,0.72726199816384,-1.06842041015625,0.239999999394058,25,-0.199951171875
25,0.737261998138592,-1.070556640625,0.249999999368811,26,-0.19989013671875
26,0.747261998113345,-1.07269287109375,0.259999999343563,27,-0.199951171875
27,0.757261998088097,-1.0748291015625,0.269999999318316,28,-0.199920654296875
28,0.76726199806285,-1.07666015625,0.279999999293068,29,-0.199981689453125
29,0.777261998037602,-1.0791015625,0.28999999926782,30,-0.199951171875
30,0.787261998012355,-1.0809326171875,0.299999999242573,31,-0.199981689453125
31,0.797261997987107,-1.08245849609375,0.309999999217325,32,-0.199920654296875
32,0.807261997961859,-1.08428955078125,0.319999999192078,33,-0.19989013671875
33,0.817261997936612,-1.0858154296875,0.32999999916683,34,-0.199951171875
34,0.827261997911364,-1.08734130859375,0.339999999141583,35,-0.199951171875
35,0.837261997886117,-1.0888671875,0.349999999116335,36,-0.199981689453125
36,0.847261997860869,-1.09039306640625,0.359999999091087,37,-0.199920654296875
37,0.857261997835622,-1.09161376953125,0.36999999906584,38,-0.199920654296875
38,0.867261997810374,-1.0931396484375,0.379999999040592,39,-0.199920654296875
39,0.877261997785126,-1.09405517578125,0.389999999015345,40,-0.199951171875
40,0.887261997759879,-1.09527587890625,0.399999998990097,41,-0.199920654296875
41,0.897261997734631,-1.09649658203125,0.40999999896485,42,-0.199920654296875
42,0.907261997709384,-1.097412109375,0.419999998939602,43,-0.199981689453125
43,0.917261997684136,-1.0986328125,0.429999998914354,44,-0.20001220703125
44,0.927261997658889,-1.09954833984375,0.439999998889107,45,-0.199920654296875
45,0.937261997633641,-1.10076904296875,0.449999998863859,46,-0.199951171875
46,0.947261997608393,-1.1016845703125,0.459999998838612,47,-0.199951171875
47,0.957261997583146,-1.10260009765625,0.469999998813364,48,-0.19989013671875
48,0.967261997557898,-1.10382080078125,0.479999998788116,49,-0.199981689453125
49,0.977261997532651,-1.104736328125,0.489999998762869,50,-0.199981689453125
50,0.987261997507403,-1.10595703125,0.499999998737621,51,-0.19989013671875
51,0.997261997482155,-1.10687255859375,0.509999998712374,52,-0.199951171875
52,1.00726199745691,-1.1077880859375,0.519999998687126,53,-0.199981689453125
53,1.01726199743166,-1.1090087890625,0.529999998661879,54,-0.19989013671875
54,1.02726199740641,-1.10992431640625,0.539999998636631,55,-0.199920654296875
55,1.03726199738117,-1.11083984375,0.549999998611383,56,-0.19989013671875
56,1.04726199735592,-1.11175537109375,0.559999998586136,57,-0.199951171875
57,1.05726199733067,-1.11297607421875,0.569999998560888,58,-0.199981689453125
58,1.06726199730542,-1.1138916015625,0.579999998535641,59,-0.199981689453125
59,1.07726199728017,-1.1151123046875,0.589999998510393,60,-0.199951171875
60,1.08726199725493,-1.11602783203125,0.599999998485146,61,-0.199951171875
61,1.09726199722968,-1.11724853515625,0.609999998459898,62,-0.199859619140625
62,1.10726199720443,-1.1181640625,0.61999999843465,63,-0.199920654296875
63,1.11726199717918,-1.11907958984375,0.629999998409403,64,-0.199920654296875
64,1.12726199715394,-1.12030029296875,0.639999998384155,65,-0.199981689453125
65,1.13726199712869,-1.1212158203125,0.649999998358908,66,-0.199920654296875
66,1.14726199710344,-1.1224365234375,0.65999999833366,67,-0.199920654296875
67,1.15726199707819,-1.1236572265625,0.669999998308413,68,-0.199951171875
68,1.16726199705295,-1.1248779296875,0.679999998283165,69,-0.199981689453125
69,1.1772619970277,-1.1260986328125,0.689999998257917,70,-0.199951171875
70,1.18726199700245,-1.12701416015625,0.69999999823267,71,-0.199981689453125
71,1.1972619969772,-1.12823486328125,0.709999998207422,72,-0.199920654296875
72,1.20726199695196,-1.12945556640625,0.719999998182175,73,-0.199951171875
73,1.21726199692671,-1.13067626953125,0.729999998156927,74,-0.19989013671875
74,1.22726199690146,-1.13189697265625,0.73999999813168,75,-0.199981689453125
75,1.23726199687621,-1.13311767578125,0.749999998106432,76,-0.199920654296875
76,1.24726199685097,-1.1346435546875,0.759999998081184,77,-0.199920654296875
77,1.25726199682572,-1.1358642578125,0.769999998055937,78,-0.199951171875
78,1.26726199680047,-1.1370849609375,0.779999998030689,79,-0.199981689453125
79,1.27726199677522,-1.13861083984375,0.789999998005442,80,-0.199981689453125
80,1.28726199674998,-1.14013671875,0.799999997980194,81,-0.199920654296875
81,1.29726199672473,-1.141357421875,0.809999997954947,82,-0.199920654296875
82,1.30726199669948,-1.14288330078125,0.819999997929699,83,-0.199951171875
83,1.31726199667423,-1.14471435546875,0.829999997904451,84,-0.199920654296875
84,1.32726199664899,-1.146240234375,0.839999997879204,85,-0.199981689453125
85,1.33726199662374,-1.14776611328125,0.849999997853956,86,-0.19989013671875
86,1.34726199659849,-1.14959716796875,0.859999997828709,87,-0.199920654296875
87,1.35726199657324,-1.151123046875,0.869999997803461,88,-0.199951171875
88,1.367261996548,-1.15325927734375,0.879999997778214,89,-0.199951171875
89,1.37726199652275,-1.15509033203125,0.889999997752966,90,-0.199951171875
90,1.3872619964975,-1.15692138671875,0.899999997727718,91,-0.199920654296875
91,1.39726199647225,-1.15875244140625,0.909999997702471,92,-0.199951171875
92,1.40726199644701,-1.160888671875,0.919999997677223,93,-0.199920654296875
93,1.41726199642176,-1.16302490234375,0.929999997651976,94,-0.199920654296875
94,1.42726199639651,-1.1651611328125,0.939999997626728,95,-0.199920654296875
95,1.43726199637126,-1.1676025390625,0.949999997601481,96,-0.199951171875
96,1.44726199634601,-1.1700439453125,0.959999997576233,97,-0.199920654296875
97,1.45726199632077,-1.1724853515625,0.969999997550985,98,-0.199951171875
98,1.46726199629552,-1.17523193359375,0.979999997525738,99,-0.199920654296875
99,1.47726199627027,-1.177978515625,0.98999999750049,100,-0.199951171875
100,1.48726199624502,-1.18072509765625,0.999999997475243,101,-0.199951171875
101,1.49726199621978,-1.1834716796875,1.00999999745,102,-0.199920654296875
102,1.50726199619453,-1.18682861328125,1.01999999742475,103,-0.199920654296875
103,1.51726199616928,-1.18988037109375,1.0299999973995,104,-0.199951171875
104,1.52726199614403,-1.1932373046875,1.03999999737425,105,-0.19989013671875
105,1.53726199611879,-1.1968994140625,1.049999997349,106,-0.199981689453125
106,1.54726199609354,-1.2005615234375,1.05999999732376,107,-0.199981689453125
107,1.55726199606829,-1.2042236328125,1.06999999729851,108,-0.199920654296875
108,1.56726199604304,-1.20849609375,1.07999999727326,109,-0.199981689453125
109,1.5772619960178,-1.2127685546875,1.08999999724801,110,-0.199951171875
110,1.58726199599255,-1.217041015625,1.09999999722277,111,-0.19989013671875
111,1.5972619959673,-1.22161865234375,1.10999999719752,112,-0.199951171875
112,1.60726199594205,-1.22650146484375,1.11999999717227,113,-0.199920654296875
113,1.61726199591681,-1.23138427734375,1.12999999714702,114,-0.199981689453125
114,1.62726199589156,-1.236572265625,1.13999999712178,115,-0.199951171875
115,1.63726199586631,-1.24176025390625,1.14999999709653,116,-0.199920654296875
116,1.64726199584106,-1.24725341796875,1.15999999707128,117,-0.199951171875
117,1.65726199581582,-1.25244140625,1.16999999704603,118,-0.199920654296875
118,1.66726199579057,-1.25823974609375,1.17999999702079,119,-0.199920654296875
119,1.67726199576532,-1.26373291015625,1.18999999699554,120,-0.199920654296875
120,1.68726199574007,-1.26953125,1.19999999697029,121,-0.199951171875
121,1.69726199571483,-1.27532958984375,1.20999999694504,122,-0.199951171875
122,1.70726199568958,-1.28143310546875,1.2199999969198,123,-0.199920654296875
123,1.71726199566433,-1.28753662109375,1.22999999689455,124,-0.19989013671875
124,1.72726199563908,-1.29364013671875,1.2399999968693,125,-0.199981689453125
125,1.73726199561384,-1.29974365234375,1.24999999684405,126,-0.199859619140625
126,1.74726199558859,-1.30584716796875,1.25999999681881,127,-0.19989013671875
127,1.75726199556334,-1.31195068359375,1.26999999679356,128,-0.19989013671875
128,1.76726199553809,-1.3177490234375,1.27999999676831,129,-0.199920654296875
129,1.77726199551284,-1.3238525390625,1.28999999674306,130,-0.199920654296875
130,1.7872619954876,-1.329345703125,1.29999999671782,131,-0.19989013671875
131,1.79726199546235,-1.33514404296875,1.30999999669257,132,-0.199951171875
132,1.8072619954371,-1.34033203125,1.31999999666732,133,-0.19989013671875
133,1.81726199541185,-1.34552001953125,1.32999999664207,134,-0.19989013671875
134,1.82726199538661,-1.35040283203125,1.33999999661683,135,-0.199951171875
135,1.83726199536136,-1.3555908203125,1.34999999659158,136,-0.199920654296875
136,1.84726199533611,-1.361083984375,1.35999999656633,137,-0.19989013671875
137,1.85726199531086,-1.36627197265625,1.36999999654108,138,-0.199920654296875
138,1.86726199528562,-1.37176513671875,1.37999999651583,139,-0.199920654296875
139,1.87726199526037,-1.37725830078125,1.38999999649059,140,-0.19989013671875
140,1.88726199523512,-1.3824462890625,1.39999999646534,141,-0.19989013671875
141,1.89726199520987,-1.38763427734375,1.40999999644009,142,-0.19989013671875
142,1.90726199518463,-1.39251708984375,1.41999999641484,143,-0.199920654296875
143,1.91726199515938,-1.3970947265625,1.4299999963896,144,-0.199920654296875
144,1.92726199513413,-1.40167236328125,1.43999999636435,145,-0.199920654296875
145,1.93726199510888,-1.4056396484375,1.4499999963391,146,-0.19989013671875
146,1.94726199508364,-1.40960693359375,1.45999999631385,147,-0.199920654296875
147,1.95726199505839,-1.41387939453125,1.46999999628861,148,-0.19989013671875
148,1.96726199503314,-1.4178466796875,1.47999999626336,149,-0.199859619140625
149,1.97726199500789,-1.42181396484375,1.48999999623811,150,-0.19989013671875
150,1.98726199498265,-1.42608642578125,1.49999999621286,151,-0.199920654296875
151,1.9972619949574,-1.43035888671875,1.50999999618762,152,-0.199859619140625
152,2.00726199493215,-1.434326171875,1.51999999616237,153,-0.1998291015625
153,2.0172619949069,-1.4385986328125,1.52999999613712,154,-0.199920654296875
154,2.02726199488166,-1.44256591796875,1.53999999611187,155,-0.19989013671875
155,2.03726199485641,-1.44683837890625,1.54999999608663,156,-0.19989013671875
156,2.04726199483116,-1.4508056640625,1.55999999606138,157,-0.1998291015625
157,2.05726199480591,-1.4544677734375,1.56999999603613,158,-0.19989013671875
158,2.06726199478067,-1.4581298828125,1.57999999601088,159,-0.19989013671875
159,2.07726199475542,-1.46148681640625,1.58999999598564,160,-0.199859619140625
160,2.08726199473017,-1.46453857421875,1.59999999596039,161,-0.199920654296875
161,2.09726199470492,-1.46728515625,1.60999999593514,162,-0.19989013671875
162,2.10726199467967,-1.47003173828125,1.61999999590989,163,-0.199859619140625
163,2.11726199465443,-1.47308349609375,1.62999999588465,164,-0.199859619140625
164,2.12726199462918,-1.47613525390625,1.6399999958594,165,-0.199859619140625
165,2.13726199460393,-1.47918701171875,1.64999999583415,166,-0.19989013671875
166,2.14726199457868,-1.4825439453125,1.6599999958089,167,-0.19989013671875
167,2.15726199455344,-1.485595703125,1.66999999578366,168,-0.199920654296875
168,2.16726199452819,-1.48895263671875,1.67999999575841,169,-0.199920654296875
169,2.17726199450294,-1.49200439453125,1.68999999573316,170,-0.199951171875
170,2.18726199447769,-1.495361328125,1.69999999570791,171,-0.19989013671875
171,2.19726199445245,-1.4984130859375,1.70999999568267,172,-0.199920654296875
172,2.2072619944272,-1.49810791015625,1.71999999565742,173,-0.199920654296875
173,2.21726199440195,-1.502685546875,1.72999999563217,174,-0.199920654296875
174,2.2272619943767,-1.50543212890625,1.73999999560692,175,-0.19989013671875
175,2.23726199435146,-1.5081787109375,1.74999999558167,176,-0.199859619140625
176,2.24726199432621,-1.51092529296875,1.75999999555643,177,-0.199920654296875
177,2.25726199430096,-1.51336669921875,1.76999999553118,178,-0.1998291015625
178,2.26726199427571,-1.51580810546875,1.77999999550593,179,-0.199859619140625
179,2.27726199425047,-1.5185546875,1.78999999548068,180,-0.19989013671875
180,2.28726199422522,-1.52099609375,1.79999999545544,181,-0.199920654296875
181,2.29726199419997,-1.52374267578125,1.80999999543019,182,-0.19989013671875
182,2.30726199417472,-1.5264892578125,1.81999999540494,183,-0.19989013671875
183,2.31726199414948,-1.52923583984375,1.82999999537969,184,-0.199859619140625
184,2.32726199412423,-1.53167724609375,1.83999999535445,185,-0.19989013671875
185,2.33726199409898,-1.533203125,1.8499999953292,186,-0.199920654296875
186,2.34726199407373,-1.53564453125,1.85999999530395,187,-0.199798583984375
187,2.35726199404849,-1.53656005859375,1.8699999952787,188,-0.1998291015625
188,2.36726199402324,-1.53778076171875,1.87999999525346,189,-0.19989013671875
189,2.37726199399799,-1.53961181640625,1.88999999522821,190,-0.199859619140625
190,2.38726199397274,-1.5411376953125,1.89999999520296,191,-0.19989013671875
191,2.3972619939475,-1.54327392578125,1.90999999517771,192,-0.199859619140625
192,2.40726199392225,-1.54510498046875,1.91999999515247,193,-0.1998291015625
193,2.417261993897,-1.54693603515625,1.92999999512722,194,-0.19989013671875
194,2.42726199387175,-1.549072265625,1.93999999510197,195,-0.199859619140625
195,2.4372619938465,-1.55120849609375,1.94999999507672,196,-0.19989013671875
196,2.44726199382126,-1.55364990234375,1.95999999505148,197,-0.199920654296875
197,2.45726199379601,-1.55609130859375,1.96999999502623,198,-0.1998291015625
198,2.46726199377076,-1.55853271484375,1.97999999500098,199,-0.1998291015625
199,2.47726199374551,-1.5606689453125,1.98999999497573,200,-0.19989013671875
200,2.48726199372027,-1.56280517578125,1.99999999495049,201,-0.1998291015625
201,2.49726199369502,-1.56494140625,2.00999999492524,202,-0.199859619140625
202,2.50726199366977,-1.56707763671875,2.01999999489999,203,-0.199920654296875
203,2.51726199364452,-1.568603515625,2.02999999487474,204,-0.199859619140625
204,2.52726199361928,-1.5704345703125,2.0399999948495,205,-0.199859619140625
205,2.53726199359403,-1.572265625,2.04999999482425,206,-0.19989013671875
206,2.54726199356878,-1.57379150390625,2.059999994799,207,-0.199859619140625
207,2.55726199354353,-1.57562255859375,2.06999999477375,208,-0.199859619140625
208,2.56726199351829,-1.57745361328125,2.0799999947485,209,-0.199859619140625
209,2.57726199349304,-1.57928466796875,2.08999999472326,210,-0.199859619140625
210,2.58726199346779,-1.58172607421875,2.09999999469801,211,-0.1998291015625
211,2.59726199344254,-1.5838623046875,2.10999999467276,212,-0.1998291015625
212,2.6072619934173,-1.5863037109375,2.11999999464751,213,-0.19989013671875
213,2.61726199339205,-1.5887451171875,2.12999999462227,214,-0.199859619140625
214,2.6272619933668,-1.590576171875,2.13999999459702,215,-0.199920654296875
215,2.63726199334155,-1.59271240234375,2.14999999457177,216,-0.199859619140625
216,2.64726199331631,-1.59454345703125,2.15999999454652,217,-0.19989013671875
217,2.65726199329106,-1.5966796875,2.16999999452128,218,-0.199859619140625
218,2.66726199326581,-1.5985107421875,2.17999999449603,219,-0.199920654296875
219,2.67726199324056,-1.600341796875,2.18999999447078,220,-0.199798583984375
220,2.68726199321532,-1.6021728515625,2.19999999444553,221,-0.19989013671875
221,2.69726199319007,-1.60430908203125,2.20999999442029,222,-0.199859619140625
222,2.70726199316482,-1.60614013671875,2.21999999439504,223,-0.1998291015625
223,2.71726199313957,-1.60797119140625,2.22999999436979,224,-0.199859619140625
224,2.72726199311433,-1.610107421875,2.23999999434454,225,-0.19989013671875
225,2.73726199308908,-1.61224365234375,2.2499999943193,226,-0.199859619140625
226,2.74726199306383,-1.6143798828125,2.25999999429405,227,-0.19989013671875
227,2.75726199303858,-1.61651611328125,2.2699999942688,228,-0.19989013671875
228,2.76726199301334,-1.61865234375,2.27999999424355,229,-0.199859619140625
229,2.77726199298809,-1.6204833984375,2.28999999421831,230,-0.199920654296875
230,2.78726199296284,-1.622314453125,2.29999999419306,231,-0.199859619140625
231,2.79726199293759,-1.6241455078125,2.30999999416781,232,-0.19989013671875
232,2.80726199291234,-1.62628173828125,2.31999999414256,233,-0.199859619140625
233,2.8172619928871,-1.62811279296875,2.32999999411732,234,-0.19989013671875
234,2.82726199286185,-1.62994384765625,2.33999999409207,235,-0.199859619140625
235,2.8372619928366,-1.63177490234375,2.34999999406682,236,-0.199859619140625
236,2.84726199281135,-1.63360595703125,2.35999999404157,237,-0.19989013671875
237,2.85726199278611,-1.6351318359375,2.36999999401633,238,-0.199920654296875
238,2.86726199276086,-1.63665771484375,2.37999999399108,239,-0.1998291015625
239,2.87726199273561,-1.63818359375,2.38999999396583,240,-0.199859619140625
240,2.88726199271036,-1.63970947265625,2.39999999394058,241,-0.1998291015625
241,2.89726199268512,-1.64154052734375,2.40999999391533,242,-0.1998291015625
242,2.90726199265987,-1.64306640625,2.41999999389009,243,-0.19989013671875
243,2.91726199263462,-1.6448974609375,2.42999999386484,244,-0.1998291015625
244,2.92726199260937,-1.646728515625,2.43999999383959,245,-0.199859619140625
245,2.93726199258413,-1.6485595703125,2.44999999381434,246,-0.19989013671875
246,2.94726199255888,-1.65069580078125,2.4599999937891,247,-0.199859619140625
247,2.95726199253363,-1.65252685546875,2.46999999376385,248,-0.199859619140625
248,2.96726199250838,-1.65435791015625,2.4799999937386,249,-0.199859619140625
249,2.97726199248314,-1.65618896484375,2.48999999371335,250,-0.199798583984375
250,2.98726199245789,-1.65771484375,2.49999999368811,251,-0.199859619140625
251,2.99726199243264,-1.65924072265625,2.50999999366286,252,-0.199859619140625
252,3.00726199240739,-1.66046142578125,2.51999999363761,253,-0.1998291015625
253,3.01726199238215,-1.6619873046875,2.52999999361236,254,-0.1998291015625
254,3.0272619923569,-1.6632080078125,2.53999999358712,255,-0.19976806640625
