,Time / s,WE(1).Potential / V,Corrected time / s,Index,WE(1).Current / A
0,10.4872879735221,-1.65283203125,0.0,1,-0.000357055664062494
1,10.4972879734969,-1.5362548828125,0.00999999997475243,2,-0.000277709960937497
2,10.5072879734716,-1.45904541015625,0.0199999999495049,3,-0.0002288818359375
3,10.5172879734464,-1.4019775390625,0.0299999999242573,4,-0.000186157226562497
4,10.5272879734212,-1.356201171875,0.0399999998990097,5,-0.000207519531250006
5,10.5372879733959,-1.31561279296875,0.0499999998737621,6,-0.000170898437499997
6,10.5472879733707,-1.2774658203125,0.0599999998485146,7,-0.000195312500000003
7,10.5572879733454,-1.2420654296875,0.069999999823267,8,-0.000186157226562497
8,10.5672879733202,-1.209716796875,0.0799999997980194,9,-0.000173950195312494
9,10.5772879732949,-1.18194580078125,0.0899999997727718,10,-0.00018310546875
10,10.5872879732697,-1.15875244140625,0.0999999997475243,11,-0.000170898437499997
11,10.5972879732444,-1.14013671875,0.109999999722277,12,-0.000180053710937503
12,10.6072879732192,-1.12518310546875,0.119999999697029,13,-0.000195312500000003
13,10.6172879731939,-1.11358642578125,0.129999999671782,14,-0.000164794921875003
14,10.6272879731687,-1.10382080078125,0.139999999646534,15,-0.000152587890625
15,10.6372879731434,-1.09588623046875,0.149999999621286,16,-0.000146484375000006
16,10.6472879731182,-1.0894775390625,0.159999999596039,17,-0.000149536132812503
17,10.6572879730929,-1.08367919921875,0.169999999570791,18,-0.000155639648437497
18,10.6672879730677,-1.07879638671875,0.179999999545544,19,-0.000140380859374997
19,10.6772879730424,-1.07421875,0.189999999520296,20,-0.000149536132812503
20,10.6872879730172,-1.07025146484375,0.199999999495049,21,-0.000143432617187494
21,10.6972879729919,-1.06689453125,0.209999999469801,22,-0.000152587890625
22,10.7072879729667,-1.06353759765625,0.219999999444553,23,-0.000161743164062506
23,10.7172879729414,-1.060791015625,0.229999999419306,24,-0.000152587890625
24,10.7272879729162,-1.0577392578125,0.239999999394058,25,-0.000170898437499997
25,10.737287972891,-1.0552978515625,0.249999999368811,26,-0.000155639648437497
26,10.7472879728657,-1.05316162109375,0.259999999343563,27,-0.000152587890625
27,10.7572879728405,-1.05072021484375,0.269999999318316,28,-0.000146484375000006
28,10.7672879728152,-1.04888916015625,0.279999999293068,29,-0.000140380859374997
29,10.77728797279,-1.0467529296875,0.28999999926782,30,-0.000149536132812503
30,10.7872879727647,-1.04522705078125,0.299999999242573,31,-0.000146484375000006
31,10.7972879727395,-1.04339599609375,0.309999999217325,32,-0.000161743164062506
32,10.8072879727142,-1.0418701171875,0.319999999192078,33,-0.000140380859374997
33,10.817287972689,-1.0400390625,0.32999999916683,34,-0.000155639648437497
34,10.8272879726637,-1.038818359375,0.339999999141583,35,-0.000152587890625
35,10.8372879726385,-1.03729248046875,0.349999999116335,36,-0.000155639648437497
36,10.8472879726132,-1.0357666015625,0.359999999091087,37,-0.000146484375000006
37,10.857287972588,-1.0345458984375,0.36999999906584,38,-0.000152587890625
38,10.8672879725627,-1.0333251953125,0.379999999040592,39,-0.000143432617187494
39,10.8772879725375,-1.0321044921875,0.389999999015345,40,-0.000149536132812503
40,10.8872879725122,-1.0308837890625,0.399999998990097,41,-0.000155639648437497
41,10.897287972487,-1.0296630859375,0.40999999896485,42,-0.000140380859374997
42,10.9072879724617,-1.02874755859375,0.419999998939602,43,-0.000152587890625
43,10.9172879724365,-1.02752685546875,0.429999998914354,44,-0.000158691406249994
44,10.9272879724112,-1.026611328125,0.439999998889107,45,-0.000146484375000006
45,10.937287972386,-1.02569580078125,0.449999998863859,46,-0.000131225585937506
46,10.9472879723608,-1.0247802734375,0.459999998838612,47,-0.000143432617187494
47,10.9572879723355,-1.02386474609375,0.469999998813364,48,-0.000140380859374997
48,10.9672879723103,-1.02294921875,0.479999998788116,49,-0.000143432617187494
49,10.977287972285,-1.02203369140625,0.489999998762869,50,-0.000146484375000006
50,10.9872879722598,-1.0211181640625,0.499999998737621,51,-0.000152587890625
51,10.9972879722345,-1.0205078125,0.509999998712374,52,-0.000131225585937506
52,11.0072879722093,-1.01959228515625,0.519999998687126,53,-0.0001373291015625
53,11.017287972184,-1.0186767578125,0.529999998661879,54,-0.000152587890625
54,11.0272879721588,-1.01806640625,0.539999998636631,55,-0.000140380859374997
55,11.0372879721335,-1.01715087890625,0.549999998611383,56,-0.000149536132812503
56,11.0472879721083,-1.01654052734375,0.559999998586136,57,-0.000143432617187494
57,11.057287972083,-1.01593017578125,0.569999998560888,58,-0.000134277343750003
58,11.0672879720578,-1.0150146484375,0.579999998535641,59,-0.0001373291015625
59,11.0772879720325,-1.014404296875,0.589999998510393,60,-0.000146484375000006
60,11.0872879720073,-1.0137939453125,0.599999998485146,61,-0.000134277343750003
61,11.097287971982,-1.01318359375,0.609999998459898,62,-0.000149536132812503
62,11.1072879719568,-1.0125732421875,0.61999999843465,63,-0.000152587890625
63,11.1172879719315,-1.011962890625,0.629999998409403,64,-0.000152587890625
64,11.1272879719063,-1.0113525390625,0.639999998384155,65,-0.000146484375000006
65,11.1372879718811,-1.0107421875,0.649999998358908,66,-0.000140380859374997
66,11.1472879718558,-1.0101318359375,0.65999999833366,67,-0.000131225585937506
67,11.1572879718306,-1.009521484375,0.669999998308413,68,-0.0001220703125
68,11.1672879718053,-1.0089111328125,0.679999998283165,69,-0.000143432617187494
69,11.1772879717801,-1.00830078125,0.689999998257917,70,-0.000146484375000006
70,11.1872879717548,-1.0076904296875,0.69999999823267,71,-0.000143432617187494
71,11.1972879717296,-1.00738525390625,0.709999998207422,72,-0.000125122070312497
72,11.2072879717043,-1.00677490234375,0.719999998182175,73,-0.000134277343750003
73,11.2172879716791,-1.00616455078125,0.729999998156927,74,-0.000134277343750003
74,11.2272879716538,-1.00555419921875,0.73999999813168,75,-0.0001373291015625
75,11.2372879716286,-1.0052490234375,0.749999998106432,76,-0.000134277343750003
76,11.2472879716033,-1.004638671875,0.759999998081184,77,-0.000131225585937506
77,11.2572879715781,-1.0040283203125,0.769999998055937,78,-0.000149536132812503
78,11.2672879715528,-1.00372314453125,0.779999998030689,79,-0.000140380859374997
79,11.2772879715276,-1.00311279296875,0.789999998005442,80,-0.000128173828124994
80,11.2872879715023,-1.0028076171875,0.799999997980194,81,-0.000143432617187494
81,11.2972879714771,-1.002197265625,0.809999997954947,82,-0.000149536132812503
82,11.3072879714518,-1.00189208984375,0.819999997929699,83,-0.000134277343750003
83,11.3172879714266,-1.00128173828125,0.829999997904451,84,-0.000143432617187494
84,11.3272879714013,-1.0009765625,0.839999997879204,85,-0.000143432617187494
85,11.3372879713761,-1.0003662109375,0.849999997853956,86,-0.000143432617187494
86,11.3472879713509,-1.00006103515625,0.859999997828709,87,-0.0001373291015625
87,11.3572879713256,-0.99945068359375,0.869999997803461,88,-0.000125122070312497
88,11.3672879713004,-0.9991455078125,0.879999997778214,89,-0.000143432617187494
89,11.3772879712751,-0.99884033203125,0.889999997752966,90,-0.000140380859374997
90,11.3872879712499,-0.99822998046875,0.899999997727718,91,-0.000140380859374997
91,11.3972879712246,-0.9979248046875,0.909999997702471,92,-0.000149536132812503
92,11.4072879711994,-0.99761962890625,0.919999997677223,93,-0.000140380859374997
93,11.4172879711741,-0.99700927734375,0.929999997651976,94,-0.000134277343750003
94,11.4272879711489,-0.9967041015625,0.939999997626728,95,-0.000140380859374997
95,11.4372879711236,-0.99639892578125,0.949999997601481,96,-0.000143432617187494
96,11.4472879710984,-0.99609375,0.959999997576233,97,-0.000134277343750003
97,11.4572879710731,-0.9954833984375,0.969999997550985,98,-0.000146484375000006
98,11.4672879710479,-0.99517822265625,0.979999997525738,99,-0.000149536132812503
99,11.4772879710226,-0.994873046875,0.98999999750049,100,-0.000143432617187494
100,11.4872879709974,-0.99456787109375,0.999999997475243,101,-0.0001373291015625
101,11.4972879709721,-0.99395751953125,1.00999999745,102,-0.000128173828124994
102,11.5072879709469,-0.99365234375,1.01999999742475,103,-0.000146484375000006
103,11.5172879709216,-0.99334716796875,1.0299999973995,104,-0.0001373291015625
104,11.5272879708964,-0.9930419921875,1.03999999737425,105,-0.000143432617187494
105,11.5372879708711,-0.99273681640625,1.049999997349,106,-0.000146484375000006
106,11.5472879708459,-0.992431640625,1.05999999732376,107,-0.0001373291015625
107,11.5572879708207,-0.99212646484375,1.06999999729851,108,-0.000140380859374997
108,11.5672879707954,-0.9918212890625,1.07999999727326,109,-0.000152587890625
109,11.5772879707702,-0.99151611328125,1.08999999724801,110,-0.000143432617187494
110,11.5872879707449,-0.99090576171875,1.09999999722277,111,-0.000143432617187494
111,11.5972879707197,-0.9906005859375,1.10999999719752,112,-0.000128173828124994
112,11.6072879706944,-0.99029541015625,1.11999999717227,113,-0.000143432617187494
113,11.6172879706692,-0.989990234375,1.12999999714702,114,-0.000149536132812503
114,11.6272879706439,-0.98968505859375,1.13999999712178,115,-0.000146484375000006
115,11.6372879706187,-0.9893798828125,1.14999999709653,116,-0.000143432617187494
116,11.6472879705934,-0.98907470703125,1.15999999707128,117,-0.000131225585937506
117,11.6572879705682,-0.98876953125,1.16999999704603,118,-0.000143432617187494
118,11.6672879705429,-0.98846435546875,1.17999999702079,119,-0.000155639648437497
119,11.6772879705177,-0.9881591796875,1.18999999699554,120,-0.000131225585937506
120,11.6872879704924,-0.98785400390625,1.19999999697029,121,-0.000146484375000006
121,11.6972879704672,-0.987548828125,1.20999999694504,122,-0.000134277343750003
122,11.7072879704419,-0.98724365234375,1.2199999969198,123,-0.0001373291015625
123,11.7172879704167,-0.9869384765625,1.22999999689455,124,-0.000149536132812503
124,11.7272879703914,-0.9869384765625,1.2399999968693,125,-0.000128173828124994
125,11.7372879703662,-0.986328125,1.24999999684405,126,-0.000146484375000006
126,11.7472879703409,-0.986328125,1.25999999681881,127,-0.0001373291015625
127,11.7572879703157,-0.98602294921875,1.26999999679356,128,-0.000125122070312497
128,11.7672879702905,-0.9857177734375,1.27999999676831,129,-0.0001373291015625
129,11.7772879702652,-0.98541259765625,1.28999999674306,130,-0.000146484375000006
130,11.78728797024,-0.985107421875,1.29999999671782,131,-0.0001373291015625
131,11.7972879702147,-0.98480224609375,1.30999999669257,132,-0.000155639648437497
132,11.8072879701895,-0.9844970703125,1.31999999666732,133,-0.000152587890625
133,11.8172879701642,-0.98419189453125,1.32999999664207,134,-0.0001373291015625
134,11.827287970139,-0.98419189453125,1.33999999661683,135,-0.000131225585937506
135,11.8372879701137,-0.98388671875,1.34999999659158,136,-0.000149536132812503
136,11.8472879700885,-0.98358154296875,1.35999999656633,137,-0.000149536132812503
137,11.8572879700632,-0.9832763671875,1.36999999654108,138,-0.000152587890625
138,11.867287970038,-0.98297119140625,1.37999999651583,139,-0.000143432617187494
139,11.8772879700127,-0.982666015625,1.38999999649059,140,-0.000134277343750003
140,11.8872879699875,-0.98236083984375,1.39999999646534,141,-0.000125122070312497
141,11.8972879699622,-0.98236083984375,1.40999999644009,142,-0.000143432617187494
142,11.907287969937,-0.9820556640625,1.41999999641484,143,-0.000152587890625
143,11.9172879699117,-0.98175048828125,1.4299999963896,144,-0.000140380859374997
144,11.9272879698865,-0.9814453125,1.43999999636435,145,-0.000128173828124994
145,11.9372879698612,-0.98114013671875,1.4499999963391,146,-0.000143432617187494
146,11.947287969836,-0.9808349609375,1.45999999631385,147,-0.000134277343750003
147,11.9572879698107,-0.9808349609375,1.46999999628861,148,-0.000146484375000006
148,11.9672879697855,-0.98052978515625,1.47999999626336,149,-0.000149536132812503
149,11.9772879697603,-0.980224609375,1.48999999623811,150,-0.000134277343750003
150,11.987287969735,-0.97991943359375,1.49999999621286,151,-0.000143432617187494
151,11.9972879697098,-0.97991943359375,1.50999999618762,152,-0.000134277343750003
152,12.0072879696845,-0.9796142578125,1.51999999616237,153,-0.000143432617187494
153,12.0172879696593,-0.97930908203125,1.52999999613712,154,-0.000140380859374997
154,12.027287969634,-0.97900390625,1.53999999611187,155,-0.000134277343750003
155,12.0372879696088,-0.97900390625,1.54999999608663,156,-0.000161743164062506
156,12.0472879695835,-0.97869873046875,1.55999999606138,157,-0.0001373291015625
157,12.0572879695583,-0.9783935546875,1.56999999603613,158,-0.000143432617187494
158,12.067287969533,-0.97808837890625,1.57999999601088,159,-0.000143432617187494
159,12.0772879695078,-0.97808837890625,1.58999999598564,160,-0.000134277343750003
160,12.0872879694825,-0.977783203125,1.59999999596039,161,-0.000128173828124994
161,12.0972879694573,-0.97747802734375,1.60999999593514,162,-0.000143432617187494
162,12.107287969432,-0.97747802734375,1.61999999590989,163,-0.000140380859374997
163,12.1172879694068,-0.9771728515625,1.62999999588465,164,-0.000143432617187494
164,12.1272879693815,-0.97686767578125,1.6399999958594,165,-0.000149536132812503
165,12.1372879693563,-0.9765625,1.64999999583415,166,-0.000149536132812503
166,12.147287969331,-0.9765625,1.6599999958089,167,-0.000152587890625
167,12.1572879693058,-0.97625732421875,1.66999999578366,168,-0.0001373291015625
168,12.1672879692806,-0.9759521484375,1.67999999575841,169,-0.000143432617187494
169,12.1772879692553,-0.9759521484375,1.68999999573316,170,-0.000146484375000006
170,12.1872879692301,-0.97564697265625,1.69999999570791,171,-0.000152587890625
171,12.1972879692048,-0.975341796875,1.70999999568267,172,-0.000149536132812503
172,12.2072879691796,-0.975341796875,1.71999999565742,173,-0.0001373291015625
173,12.2172879691543,-0.97503662109375,1.72999999563217,174,-0.000140380859374997
174,12.2272879691291,-0.9747314453125,1.73999999560692,175,-0.000149536132812503
175,12.2372879691038,-0.9747314453125,1.74999999558167,176,-0.0001373291015625
176,12.2472879690786,-0.97442626953125,1.75999999555643,177,-0.000140380859374997
177,12.2572879690533,-0.97442626953125,1.76999999553118,178,-0.000131225585937506
178,12.2672879690281,-0.97412109375,1.77999999550593,179,-0.000146484375000006
179,12.2772879690028,-0.97381591796875,1.78999999548068,180,-0.000131225585937506
180,12.2872879689776,-0.97381591796875,1.79999999545544,181,-0.000158691406249994
181,12.2972879689523,-0.9735107421875,1.80999999543019,182,-0.000149536132812503
182,12.3072879689271,-0.97320556640625,1.81999999540494,183,-0.000146484375000006
183,12.3172879689018,-0.97320556640625,1.82999999537969,184,-0.000152587890625
184,12.3272879688766,-0.972900390625,1.83999999535445,185,-0.000143432617187494
185,12.3372879688513,-0.972900390625,1.8499999953292,186,-0.000161743164062506
186,12.3472879688261,-0.97259521484375,1.85999999530395,187,-0.000149536132812503
187,12.3572879688008,-0.9722900390625,1.8699999952787,188,-6.103515625e-05
188,12.3672879687756,-0.9722900390625,1.87999999525346,189,-0.000173950195312494
189,12.3772879687504,-0.97198486328125,1.88999999522821,190,-0.000164794921875003
190,12.3872879687251,-0.97198486328125,1.89999999520296,191,-0.000186157226562497
191,12.3972879686999,-0.97198486328125,1.90999999517771,192,-0.000149536132812503
192,12.4072879686746,-0.9716796875,1.91999999515247,193,-0.000170898437499997
193,12.4172879686494,-0.97137451171875,1.92999999512722,194,-0.0001678466796875
194,12.4272879686241,-0.97137451171875,1.93999999510197,195,-0.000155639648437497
195,12.4372879685989,-0.9710693359375,1.94999999507672,196,-0.000155639648437497
196,12.4472879685736,-0.9710693359375,1.95999999505148,197,-0.000149536132812503
197,12.4572879685484,-0.97076416015625,1.96999999502623,198,-0.000152587890625
198,12.4672879685231,-0.97076416015625,1.97999999500098,199,-0.000143432617187494
199,12.4772879684979,-0.970458984375,1.98999999497573,200,-0.000143432617187494
200,12.4872879684726,-0.970458984375,1.99999999495049,201,-0.000149536132812503
201,12.4972879684474,-0.97015380859375,2.00999999492524,202,-0.000158691406249994
202,12.5072879684221,-0.97015380859375,2.01999999489999,203,-0.000149536132812503
203,12.5172879683969,-0.9698486328125,2.02999999487474,204,-0.000158691406249994
204,12.5272879683716,-0.9698486328125,2.0399999948495,205,-0.000134277343750003
205,12.5372879683464,-0.96954345703125,2.04999999482425,206,-0.0001373291015625
206,12.5472879683211,-0.96923828125,2.059999994799,207,-0.000140380859374997
207,12.5572879682959,-0.96923828125,2.06999999477375,208,-0.0001373291015625
208,12.5672879682706,-0.96893310546875,2.0799999947485,209,-0.000146484375000006
209,12.5772879682454,-0.96893310546875,2.08999999472326,210,-0.000164794921875003
210,12.5872879682202,-0.9686279296875,2.09999999469801,211,-0.000146484375000006
211,12.5972879681949,-0.9686279296875,2.10999999467276,212,-0.000143432617187494
212,12.6072879681697,-0.96832275390625,2.11999999464751,213,-0.000149536132812503
213,12.6172879681444,-0.96832275390625,2.12999999462227,214,-0.0001373291015625
214,12.6272879681192,-0.968017578125,2.13999999459702,215,-0.000143432617187494
215,12.6372879680939,-0.96771240234375,2.14999999457177,216,-0.000155639648437497
216,12.6472879680687,-0.96771240234375,2.15999999454652,217,-0.000146484375000006
217,12.6572879680434,-0.9674072265625,2.16999999452128,218,-0.000134277343750003
218,12.6672879680182,-0.9674072265625,2.17999999449603,219,-0.000128173828124994
219,12.6772879679929,-0.96710205078125,2.18999999447078,220,-0.000158691406249994
220,12.6872879679677,-0.96710205078125,2.19999999444553,221,-0.000131225585937506
221,12.6972879679424,-0.966796875,2.20999999442029,222,-0.0001373291015625
222,12.7072879679172,-0.966796875,2.21999999439504,223,-0.000125122070312497
223,12.7172879678919,-0.96649169921875,2.22999999436979,224,-0.000143432617187494
224,12.7272879678667,-0.96649169921875,2.23999999434454,225,-0.000143432617187494
225,12.7372879678414,-0.9661865234375,2.2499999943193,226,-0.000143432617187494
226,12.7472879678162,-0.9661865234375,2.25999999429405,227,-0.000143432617187494
227,12.7572879677909,-0.96588134765625,2.2699999942688,228,-0.000134277343750003
228,12.7672879677657,-0.96588134765625,2.27999999424355,229,-0.0001373291015625
229,12.7772879677404,-0.965576171875,2.28999999421831,230,-0.000134277343750003
230,12.7872879677152,-0.965576171875,2.29999999419306,231,-0.000143432617187494
231,12.79728796769,-0.96527099609375,2.30999999416781,232,-0.000128173828124994
232,12.8072879676647,-0.96527099609375,2.31999999414256,233,-0.0001373291015625
233,12.8172879676395,-0.9649658203125,2.32999999411732,234,-0.000128173828124994
234,12.8272879676142,-0.9649658203125,2.33999999409207,235,-0.000146484375000006
235,12.837287967589,-0.96466064453125,2.34999999406682,236,-0.000146484375000006
236,12.8472879675637,-0.96466064453125,2.35999999404157,237,-0.000158691406249994
237,12.8572879675385,-0.96435546875,2.36999999401633,238,-0.000149536132812503
238,12.8672879675132,-0.96435546875,2.37999999399108,239,-0.000146484375000006
239,12.877287967488,-0.96405029296875,2.38999999396583,240,-0.000149536132812503
240,12.8872879674627,-0.96405029296875,2.39999999394058,241,-0.000140380859374997
241,12.8972879674375,-0.9637451171875,2.40999999391533,242,-0.000155639648437497
242,12.9072879674122,-0.9637451171875,2.41999999389009,243,-0.000161743164062506
243,12.917287967387,-0.96343994140625,2.42999999386484,244,-0.0001373291015625
244,12.9272879673617,-0.96343994140625,2.43999999383959,245,-0.000131225585937506
245,12.9372879673365,-0.963134765625,2.44999999381434,246,-0.000134277343750003
