,Potential applied / V,Time / s,WE(1).Current / A,WE(1).Potential / V,Scan,Index
0,0.007171630859375,45.9683298839411,0.030279541015625,0.00731201171875,4,1681
1,0.01434326171875,45.9922348838808,0.031011962890625,0.0144744873046875,4,1682
2,0.021514892578125,46.0161398838204,0.031683349609375,0.0216461181640625,4,1683
3,0.0286865234375,46.0400448837601,0.0323150634765625,0.0287994384765625,4,1684
4,0.035858154296875,46.0639498836997,0.0328033447265625,0.035968017578125,4,1685
5,0.04302978515625,46.0878548836394,0.03310546875,0.0431488037109375,4,1686
6,0.050201416015625,46.111759883579,0.0333526611328125,0.05029296875,4,1687
7,0.057373046875,46.1356648835186,0.0334808349609375,0.057403564453125,4,1688
8,0.064544677734375,46.1595698834583,0.0335784912109375,0.06463623046875,4,1689
9,0.07171630859375,46.1834748833979,0.0335296630859375,0.071807861328125,4,1690
10,0.078887939453125,46.2073798833376,0.033599853515625,0.07891845703125,4,1691
11,0.0860595703125,46.2312848832772,0.0333984375,0.086151123046875,4,1692
12,0.093231201171875,46.2551898832169,0.0333404541015625,0.09326171875,4,1693
13,0.10040283203125,46.2790948831565,0.0329925537109375,0.100494384765625,4,1694
14,0.107574462890625,46.3029998830962,0.03272705078125,0.107666015625,4,1695
15,0.11474609375,46.3269048830358,0.0324249267578125,0.11480712890625,4,1696
16,0.121917724609375,46.3508098829755,0.03197021484375,0.1219482421875,4,1697
17,0.12908935546875,46.3747148829151,0.0315826416015625,0.129150390625,4,1698
18,0.136260986328125,46.3986198828547,0.0311431884765625,0.13629150390625,4,1699
19,0.1434326171875,46.4225248827944,0.0307159423828125,0.14349365234375,4,1700
20,0.150604248046875,46.446429882734,0.0302734375,0.150604248046875,4,1701
21,0.15777587890625,46.4703348826737,0.029803466796875,0.15777587890625,4,1702
22,0.164947509765625,46.4942398826133,0.0293304443359375,0.164947509765625,4,1703
23,0.172119140625,46.518144882553,0.028875732421875,0.172119140625,4,1704
24,0.179290771484375,46.5420498824926,0.0283935546875,0.179290771484375,4,1705
25,0.18646240234375,46.5659548824323,0.0279083251953125,0.18646240234375,4,1706
26,0.193634033203125,46.5898598823719,0.0274627685546875,0.193634033203125,4,1707
27,0.2008056640625,46.6137648823116,0.0270050048828125,0.200775146484375,4,1708
28,0.207977294921875,46.6376698822512,0.0265533447265625,0.2080078125,4,1709
29,0.21514892578125,46.6615748821908,0.02611083984375,0.215118408203125,4,1710
30,0.222320556640625,46.6854798821305,0.0256805419921875,0.222320556640625,4,1711
31,0.2294921875,46.7093848820701,0.02525634765625,0.229461669921875,4,1712
32,0.236663818359375,46.7332898820098,0.024835205078125,0.23663330078125,4,1713
33,0.24383544921875,46.7571948819494,0.0244415283203125,0.24383544921875,4,1714
34,0.251007080078125,46.7810998818891,0.0240478515625,0.251007080078125,4,1715
35,0.2581787109375,46.8050048818287,0.023675537109375,0.25811767578125,4,1716
36,0.265350341796875,46.8289098817684,0.023309326171875,0.26531982421875,4,1717
37,0.27252197265625,46.852814881708,0.02294921875,0.2724609375,4,1718
38,0.279693603515625,46.8767198816477,0.0225921630859375,0.279632568359375,4,1719
39,0.286865234375,46.9006248815873,0.0222412109375,0.28680419921875,4,1720
40,0.294036865234375,46.924529881527,0.0219146728515625,0.293975830078125,4,1721
41,0.30120849609375,46.9484348814666,0.021600341796875,0.301116943359375,4,1722
42,0.308380126953125,46.9723398814062,0.0212921142578125,0.308319091796875,4,1723
43,0.3155517578125,46.9962448813459,0.020989990234375,0.31549072265625,4,1724
44,0.322723388671875,47.0201498812855,0.0206787109375,0.322662353515625,4,1725
45,0.32989501953125,47.0440548812252,0.0203887939453125,0.329833984375,4,1726
46,0.337066650390625,47.0679598811648,0.02010498046875,0.336944580078125,4,1727
47,0.34423828125,47.0918648811045,0.0198394775390625,0.344146728515625,4,1728
48,0.351409912109375,47.1157698810441,0.0195556640625,0.351318359375,4,1729
49,0.35858154296875,47.1396748809838,0.0192901611328125,0.358489990234375,4,1730
50,0.365753173828125,47.1635798809234,0.019036865234375,0.365692138671875,4,1731
51,0.3729248046875,47.1874848808631,0.018804931640625,0.372833251953125,4,1732
52,0.380096435546875,47.2113898808027,0.018585205078125,0.380035400390625,4,1733
53,0.38726806640625,47.2352948807423,0.0183746337890625,0.38720703125,4,1734
54,0.394439697265625,47.259199880682,0.01817626953125,0.39434814453125,4,1735
55,0.401611328125,47.2831048806216,0.0179443359375,0.401580810546875,4,1736
56,0.408782958984375,47.3070098805613,0.0177825927734375,0.408660888671875,4,1737
57,0.41595458984375,47.3309148805009,0.0176177978515625,0.415863037109375,4,1738
58,0.423126220703125,47.3548198804406,0.017242431640625,0.4229736328125,4,1739
59,0.4302978515625,47.3787248803802,0.0164031982421875,0.43023681640625,4,1740
60,0.437469482421875,47.4026298803199,0.016094970703125,0.43731689453125,4,1741
61,0.44464111328125,47.4265348802595,0.0159210205078125,0.44451904296875,4,1742
62,0.451812744140625,47.4504398801992,0.0158203125,0.451629638671875,4,1743
63,0.458984375,47.4743448801388,0.015765380859375,0.4588623046875,4,1744
64,0.466156005859375,47.4982498800784,0.015728759765625,0.46600341796875,4,1745
65,0.47332763671875,47.5221548800181,0.01572265625,0.473175048828125,4,1746
66,0.480499267578125,47.5460598799577,0.0157379150390625,0.480377197265625,4,1747
67,0.4876708984375,47.5699648798974,0.0157684326171875,0.487457275390625,4,1748
68,0.494842529296875,47.593869879837,0.015826416015625,0.494659423828125,4,1749
69,0.50201416015625,47.6177748797767,0.01590576171875,0.501861572265625,4,1750
70,0.494842529296875,47.6416798797163,0.0153656005859375,0.494659423828125,4,1751
71,0.4876708984375,47.665584879656,0.0148895263671875,0.487548828125,4,1752
72,0.480499267578125,47.6894898795956,0.0144805908203125,0.480377197265625,4,1753
73,0.47332763671875,47.7133948795353,0.014105224609375,0.47314453125,4,1754
74,0.466156005859375,47.7372998794749,0.01375732421875,0.466064453125,4,1755
75,0.458984375,47.7612048794145,0.013427734375,0.45880126953125,4,1756
76,0.451812744140625,47.7851098793542,0.0131195068359375,0.451690673828125,4,1757
77,0.44464111328125,47.8090148792938,0.012835693359375,0.44451904296875,4,1758
78,0.437469482421875,47.8329198792335,0.01256103515625,0.4373779296875,4,1759
79,0.4302978515625,47.8568248791731,0.0123016357421875,0.430145263671875,4,1760
80,0.423126220703125,47.8807298791128,0.01204833984375,0.423004150390625,4,1761
81,0.41595458984375,47.9046348790524,0.011810302734375,0.415802001953125,4,1762
82,0.408782958984375,47.9285398789921,0.011590576171875,0.40863037109375,4,1763
83,0.401611328125,47.9524448789317,0.011370849609375,0.401519775390625,4,1764
84,0.394439697265625,47.9763498788714,0.01116943359375,0.394317626953125,4,1765
85,0.38726806640625,48.000254878811,0.0109619140625,0.38714599609375,4,1766
86,0.380096435546875,48.0241598787507,0.0107696533203125,0.380035400390625,4,1767
87,0.3729248046875,48.0480648786903,0.0105804443359375,0.37286376953125,4,1768
88,0.365753173828125,48.0719698786299,0.010406494140625,0.365631103515625,4,1769
89,0.35858154296875,48.0958748785696,0.0102264404296875,0.3585205078125,4,1770
90,0.351409912109375,48.1197798785092,0.010052490234375,0.351348876953125,4,1771
91,0.34423828125,48.1436848784489,0.0098876953125,0.344146728515625,4,1772
92,0.337066650390625,48.1675898783885,0.00971069335937499,0.337005615234375,4,1773
93,0.32989501953125,48.1914948783282,0.0095489501953125,0.329833984375,4,1774
94,0.322723388671875,48.2153998782678,0.00937805175781251,0.32269287109375,4,1775
95,0.3155517578125,48.2393048782075,0.00922546386718751,0.3155517578125,4,1776
96,0.308380126953125,48.2632098781471,0.00905761718750001,0.30828857421875,4,1777
97,0.30120849609375,48.2871148780868,0.008892822265625,0.301177978515625,4,1778
98,0.294036865234375,48.3110198780264,0.0087249755859375,0.29400634765625,4,1779
99,0.286865234375,48.334924877966,0.00855407714843751,0.28680419921875,4,1780
100,0.279693603515625,48.3588298779057,0.00838623046875001,0.279632568359375,4,1781
101,0.27252197265625,48.3827348778453,0.00820312500000001,0.27239990234375,4,1782
102,0.265350341796875,48.406639877785,0.00802001953125001,0.265289306640625,4,1783
103,0.2581787109375,48.4305448777246,0.00782165527343751,0.258148193359375,4,1784
104,0.251007080078125,48.4544498776643,0.0076141357421875,0.2509765625,4,1785
105,0.24383544921875,48.4783548776039,0.00740966796875001,0.243804931640625,4,1786
106,0.236663818359375,48.5022598775436,0.007183837890625,0.236663818359375,4,1787
107,0.2294921875,48.5261648774832,0.00694885253906249,0.229461669921875,4,1788
108,0.222320556640625,48.5500698774229,0.00670166015625,0.2222900390625,4,1789
109,0.21514892578125,48.5739748773625,0.0064361572265625,0.215057373046875,4,1790
110,0.207977294921875,48.5978798773021,0.0061492919921875,0.20794677734375,4,1791
111,0.2008056640625,48.6217848772418,0.0058441162109375,0.2008056640625,4,1792
112,0.193634033203125,48.6456898771814,0.00551757812500001,0.193603515625,4,1793
113,0.18646240234375,48.6695948771211,0.0051544189453125,0.186431884765625,4,1794
114,0.179290771484375,48.6934998770607,0.0047760009765625,0.179290771484375,4,1795
115,0.172119140625,48.7174048770004,0.0043609619140625,0.172119140625,4,1796
116,0.164947509765625,48.74130987694,0.0039215087890625,0.164947509765625,4,1797
117,0.15777587890625,48.7652148768797,0.0034454345703125,0.15777587890625,4,1798
118,0.150604248046875,48.7891198768193,0.0029449462890625,0.150634765625,4,1799
119,0.1434326171875,48.813024876759,0.00238952636718751,0.14349365234375,4,1800
120,0.136260986328125,48.8369298766986,0.0018035888671875,0.136260986328125,4,1801
121,0.12908935546875,48.8608348766383,0.00115051269531249,0.129150390625,4,1802
122,0.121917724609375,48.8847398765779,0.000476074218749997,0.1219482421875,4,1803
123,0.11474609375,48.9086448765175,-0.000271606445312503,0.114776611328125,4,1804
124,0.107574462890625,48.9325498764572,-0.0010498046875,0.107635498046875,4,1805
125,0.10040283203125,48.9564548763968,-0.00186767578124999,0.10040283203125,4,1806
126,0.093231201171875,48.9803598763365,-0.0027496337890625,0.093231201171875,4,1807
127,0.0860595703125,49.0042648762761,-0.00366821289062499,0.08612060546875,4,1808
128,0.078887939453125,49.0281698762158,-0.004638671875,0.07891845703125,4,1809
129,0.07171630859375,49.0520748761554,-0.0056488037109375,0.071807861328125,4,1810
130,0.064544677734375,49.0759798760951,-0.00669250488281251,0.064605712890625,4,1811
131,0.057373046875,49.0998848760347,-0.00780029296875,0.057403564453125,4,1812
132,0.050201416015625,49.1237898759744,-0.0088958740234375,0.05029296875,4,1813
133,0.04302978515625,49.147694875914,-0.0100830078125,0.04312744140625,4,1814
134,0.035858154296875,49.1715998758536,-0.011163330078125,0.0359283447265625,4,1815
135,0.0286865234375,49.1955048757933,-0.0124298095703125,0.028802490234375,4,1816
136,0.021514892578125,49.2194098757329,-0.01353759765625,0.021612548828125,4,1817
137,0.01434326171875,49.2433148756726,-0.0146942138671875,0.0144500732421875,4,1818
138,0.007171630859375,49.2672198756122,-0.015863037109375,0.00726928710937499,4,1819
139,0.0,49.2911248755519,-0.016973876953125,8.85009765625028e-05,4,1820
140,-0.007171630859375,49.3150298754915,-0.018035888671875,-0.00704345703125001,4,1821
141,-0.01434326171875,49.3389348754312,-0.0190521240234375,-0.0142303466796875,4,1822
142,-0.021514892578125,49.3628398753708,-0.0200164794921875,-0.02139892578125,4,1823
143,-0.0286865234375,49.3867448753105,-0.0209014892578125,-0.0285491943359375,4,1824
144,-0.035858154296875,49.4106498752501,-0.0217132568359375,-0.0357330322265625,4,1825
145,-0.04302978515625,49.4345548751897,-0.0224578857421875,-0.0429046630859375,4,1826
146,-0.050201416015625,49.4584598751294,-0.023114013671875,-0.05010986328125,4,1827
147,-0.057373046875,49.482364875069,-0.02369384765625,-0.05731201171875,4,1828
148,-0.064544677734375,49.5062698750087,-0.0241607666015625,-0.064453125,4,1829
149,-0.07171630859375,49.5301748749483,-0.02457275390625,-0.071563720703125,4,1830
150,-0.078887939453125,49.554079874888,-0.0248931884765625,-0.078765869140625,4,1831
151,-0.0860595703125,49.5779848748276,-0.0251312255859375,-0.0859375,4,1832
152,-0.093231201171875,49.6018898747673,-0.02529296875,-0.093109130859375,4,1833
153,-0.10040283203125,49.6257948747069,-0.0253692626953125,-0.100250244140625,4,1834
154,-0.107574462890625,49.6496998746466,-0.025408935546875,-0.10748291015625,4,1835
155,-0.11474609375,49.6736048745862,-0.02535400390625,-0.1146240234375,4,1836
156,-0.121917724609375,49.6975098745258,-0.02528076171875,-0.12176513671875,4,1837
157,-0.12908935546875,49.7214148744655,-0.0251220703125,-0.128997802734375,4,1838
158,-0.136260986328125,49.7453198744051,-0.0249359130859375,-0.136077880859375,4,1839
159,-0.1434326171875,49.7692248743448,-0.0247039794921875,-0.143341064453125,4,1840
160,-0.150604248046875,49.7931298742844,-0.024444580078125,-0.15045166015625,4,1841
161,-0.15777587890625,49.8170348742241,-0.0241668701171875,-0.157684326171875,4,1842
162,-0.164947509765625,49.8409398741637,-0.023858642578125,-0.164825439453125,4,1843
163,-0.172119140625,49.8648448741034,-0.02354736328125,-0.17193603515625,4,1844
164,-0.179290771484375,49.888749874043,-0.0232330322265625,-0.17919921875,4,1845
165,-0.18646240234375,49.9126548739827,-0.0229339599609375,-0.18634033203125,4,1846
166,-0.193634033203125,49.9365598739223,-0.0226348876953125,-0.193511962890625,4,1847
167,-0.2008056640625,49.960464873862,-0.02237548828125,-0.20068359375,4,1848
168,-0.207977294921875,49.9843698738016,-0.0220947265625,-0.20782470703125,4,1849
169,-0.21514892578125,50.0082748737412,-0.02178955078125,-0.214996337890625,4,1850
170,-0.222320556640625,50.0321798736809,-0.0215576171875,-0.22210693359375,4,1851
171,-0.2294921875,50.0560848736205,-0.021575927734375,-0.229339599609375,4,1852
172,-0.236663818359375,50.0799898735602,-0.0217620849609375,-0.23651123046875,4,1853
173,-0.24383544921875,50.1038948734998,-0.0216705322265625,-0.24365234375,4,1854
174,-0.251007080078125,50.1277998734395,-0.02125244140625,-0.250823974609375,4,1855
175,-0.2581787109375,50.1517048733791,-0.0207977294921875,-0.258056640625,4,1856
176,-0.265350341796875,50.1756098733188,-0.0204193115234375,-0.265228271484375,4,1857
177,-0.27252197265625,50.1995148732584,-0.0201141357421875,-0.2723388671875,4,1858
178,-0.279693603515625,50.2234198731981,-0.019854736328125,-0.27947998046875,4,1859
179,-0.286865234375,50.2473248731377,-0.019659423828125,-0.286712646484375,4,1860
180,-0.294036865234375,50.2712298730773,-0.0194610595703125,-0.2939453125,4,1861
181,-0.30120849609375,50.295134873017,-0.0193023681640625,-0.301025390625,4,1862
182,-0.308380126953125,50.3190398729566,-0.01917724609375,-0.3082275390625,4,1863
183,-0.3155517578125,50.3429448728963,-0.0191009521484375,-0.31536865234375,4,1864
184,-0.322723388671875,50.3668498728359,-0.019061279296875,-0.322540283203125,4,1865
185,-0.32989501953125,50.3907548727756,-0.0190643310546875,-0.329742431640625,4,1866
186,-0.337066650390625,50.4146598727152,-0.0190704345703125,-0.3369140625,4,1867
187,-0.34423828125,50.4385648726549,-0.019097900390625,-0.344024658203125,4,1868
188,-0.351409912109375,50.4624698725945,-0.0191131591796875,-0.35125732421875,4,1869
189,-0.35858154296875,50.4863748725342,-0.0191619873046875,-0.3583984375,4,1870
190,-0.365753173828125,50.5102798724738,-0.0191650390625,-0.3656005859375,4,1871
191,-0.3729248046875,50.5341848724134,-0.0191558837890625,-0.372772216796875,4,1872
192,-0.380096435546875,50.5580898723531,-0.01907958984375,-0.37994384765625,4,1873
193,-0.38726806640625,50.5819948722927,-0.0189727783203125,-0.38714599609375,4,1874
194,-0.394439697265625,50.6058998722324,-0.018817138671875,-0.394256591796875,4,1875
195,-0.401611328125,50.629804872172,-0.01861572265625,-0.401397705078125,4,1876
196,-0.408782958984375,50.6537098721117,-0.01839599609375,-0.4085693359375,4,1877
197,-0.41595458984375,50.6776148720513,-0.018170166015625,-0.415802001953125,4,1878
198,-0.423126220703125,50.701519871991,-0.0179595947265625,-0.422943115234375,4,1879
199,-0.4302978515625,50.7254248719306,-0.0178009033203125,-0.43011474609375,4,1880
200,-0.437469482421875,50.7493298718703,-0.017633056640625,-0.437286376953125,4,1881
201,-0.44464111328125,50.7732348718099,-0.01744384765625,-0.4444580078125,4,1882
202,-0.451812744140625,50.7971398717496,-0.0172760009765625,-0.45166015625,4,1883
203,-0.458984375,50.8210448716892,-0.017108154296875,-0.458770751953125,4,1884
204,-0.466156005859375,50.8449498716288,-0.0169769287109375,-0.46600341796875,4,1885
205,-0.47332763671875,50.8688548715685,-0.016900634765625,-0.473175048828125,4,1886
206,-0.480499267578125,50.8927598715081,-0.0188690185546875,-0.480316162109375,4,1887
207,-0.4876708984375,50.9166648714478,-0.0264068603515625,-0.48748779296875,4,1888
208,-0.494842529296875,50.9405698713874,-0.0282440185546875,-0.494598388671875,4,1889
209,-0.50201416015625,50.9644748713271,-0.0286285400390625,-0.5018310546875,4,1890
210,-0.509185791015625,50.9883798712667,-0.028863525390625,-0.509063720703125,4,1891
211,-0.516357421875,51.0122848712064,-0.02833251953125,-0.516204833984375,4,1892
212,-0.523529052734375,51.036189871146,-0.0278839111328125,-0.523284912109375,4,1893
213,-0.53070068359375,51.0600948710857,-0.0274139404296875,-0.530517578125,4,1894
214,-0.537872314453125,51.0839998710253,-0.0268218994140625,-0.5377197265625,4,1895
215,-0.5450439453125,51.1079048709649,-0.0263275146484375,-0.54486083984375,4,1896
216,-0.552215576171875,51.1318098709046,-0.025762939453125,-0.5521240234375,4,1897
217,-0.55938720703125,51.1557148708442,-0.0251678466796875,-0.559173583984375,4,1898
218,-0.566558837890625,51.1796198707839,-0.0249603271484375,-0.56634521484375,4,1899
219,-0.57373046875,51.2035248707235,-0.0253509521484375,-0.573516845703125,4,1900
220,-0.580902099609375,51.2274298706632,-0.0244476318359375,-0.5806884765625,4,1901
221,-0.58807373046875,51.2513348706028,-0.02381591796875,-0.587860107421875,4,1902
222,-0.595245361328125,51.2752398705425,-0.0232696533203125,-0.595062255859375,4,1903
223,-0.6024169921875,51.2991448704821,-0.022784423828125,-0.60223388671875,4,1904
224,-0.609588623046875,51.3230498704218,-0.022393798828125,-0.609405517578125,4,1905
225,-0.61676025390625,51.3469548703614,-0.02210693359375,-0.616546630859375,4,1906
226,-0.623931884765625,51.370859870301,-0.0216827392578125,-0.623687744140625,4,1907
227,-0.631103515625,51.3947648702407,-0.0215240478515625,-0.630828857421875,4,1908
228,-0.638275146484375,51.4186698701803,-0.0209991455078125,-0.6380615234375,4,1909
229,-0.64544677734375,51.44257487012,-0.020574951171875,-0.645233154296875,4,1910
230,-0.652618408203125,51.4664798700596,-0.0202239990234375,-0.652374267578125,4,1911
231,-0.6597900390625,51.4903848699993,-0.0198760986328125,-0.659576416015625,4,1912
232,-0.666961669921875,51.5142898699389,-0.01964111328125,-0.666717529296875,4,1913
233,-0.67413330078125,51.5381948698786,-0.0193450927734375,-0.67388916015625,4,1914
234,-0.681304931640625,51.5620998698182,-0.019061279296875,-0.681060791015625,4,1915
235,-0.6884765625,51.5860048697579,-0.018798828125,-0.688232421875,4,1916
236,-0.695648193359375,51.6099098696975,-0.01856689453125,-0.6954345703125,4,1917
237,-0.70281982421875,51.6338148696371,-0.0183441162109375,-0.70257568359375,4,1918
238,-0.709991455078125,51.6577198695768,-0.018133544921875,-0.709747314453125,4,1919
239,-0.7171630859375,51.6816248695164,-0.0179443359375,-0.716888427734375,4,1920
240,-0.724334716796875,51.7055298694561,-0.01776123046875,-0.724090576171875,4,1921
241,-0.73150634765625,51.7294348693957,-0.01759033203125,-0.731292724609375,4,1922
